!Agilent Technologies,E5071C,MY46631589,B.13.30
!Date: Sun May 30 22:02:37 2021
!Data & Calibration Information:
!Freq	S11:SOLT2(ON)	S21:SOLT2(ON)	S12:SOLT2(ON)	S22:SOLT2(ON)
!PortZ  Port1:50+j0    Port2:50+j0
!Above PortZ is port z conversion or system Z0 setting when saving the data.
!When reading, reference impedance value at option line is always used.
# Hz S MA R 50
8200000000	6.791296e-003	1.432047e+002	9.956501e-001	1.072215e+002	9.951005e-001	1.074229e+002	6.051672e-003	-1.247420e+002
8202625000	7.100175e-003	1.436446e+002	9.955801e-001	1.063570e+002	9.950487e-001	1.065570e+002	6.246593e-003	-1.270877e+002
8205250000	7.358895e-003	1.440370e+002	9.956125e-001	1.054916e+002	9.950667e-001	1.056910e+002	6.467193e-003	-1.290618e+002
8207875000	7.647684e-003	1.443916e+002	9.956125e-001	1.046295e+002	9.951057e-001	1.048251e+002	6.710401e-003	-1.311800e+002
8210500000	7.951450e-003	1.447921e+002	9.956009e-001	1.037650e+002	9.951299e-001	1.039574e+002	6.987129e-003	-1.331673e+002
8213125000	8.230374e-003	1.449151e+002	9.955664e-001	1.029007e+002	9.950926e-001	1.030953e+002	7.255716e-003	-1.349368e+002
8215750000	8.514255e-003	1.451178e+002	9.955287e-001	1.020401e+002	9.950823e-001	1.022302e+002	7.501543e-003	-1.366160e+002
8218375000	8.785760e-003	1.453069e+002	9.955091e-001	1.011766e+002	9.950746e-001	1.013692e+002	7.810555e-003	-1.383537e+002
8221000000	9.074433e-003	1.454073e+002	9.955306e-001	1.003182e+002	9.950691e-001	1.005071e+002	8.083648e-003	-1.398723e+002
8223625000	9.337665e-003	1.454817e+002	9.955058e-001	9.945541e+001	9.950634e-001	9.964433e+001	8.364864e-003	-1.414147e+002
8226250000	9.600129e-003	1.455799e+002	9.954703e-001	9.859678e+001	9.950475e-001	9.878200e+001	8.655582e-003	-1.427663e+002
8228875000	9.863388e-003	1.455811e+002	9.954826e-001	9.773615e+001	9.950349e-001	9.792032e+001	8.970110e-003	-1.441204e+002
8231500000	1.010748e-002	1.456551e+002	9.954780e-001	9.687667e+001	9.950570e-001	9.705962e+001	9.269128e-003	-1.454151e+002
8234125000	1.036234e-002	1.455443e+002	9.954796e-001	9.601770e+001	9.950570e-001	9.619916e+001	9.549610e-003	-1.467183e+002
8236750000	1.058751e-002	1.456313e+002	9.954527e-001	9.515944e+001	9.950816e-001	9.534122e+001	9.868904e-003	-1.478430e+002
8239375000	1.082536e-002	1.454394e+002	9.954576e-001	9.430164e+001	9.950490e-001	9.447967e+001	1.016643e-002	-1.489454e+002
8242000000	1.102869e-002	1.454026e+002	9.954499e-001	9.344475e+001	9.950430e-001	9.362119e+001	1.048775e-002	-1.501583e+002
8244625000	1.122435e-002	1.452778e+002	9.954622e-001	9.258799e+001	9.950552e-001	9.276315e+001	1.076572e-002	-1.511664e+002
8247250000	1.142984e-002	1.451948e+002	9.954565e-001	9.173098e+001	9.950352e-001	9.190564e+001	1.106974e-002	-1.522988e+002
8249875000	1.162523e-002	1.450987e+002	9.954981e-001	9.087520e+001	9.950249e-001	9.104947e+001	1.136166e-002	-1.533904e+002
8252500000	1.180627e-002	1.449409e+002	9.954704e-001	9.001984e+001	9.950517e-001	9.019282e+001	1.164688e-002	-1.543729e+002
8255125000	1.196080e-002	1.448236e+002	9.954685e-001	8.916320e+001	9.950259e-001	8.933683e+001	1.193951e-002	-1.554334e+002
8257750000	1.210557e-002	1.447056e+002	9.955097e-001	8.831244e+001	9.950496e-001	8.848251e+001	1.220804e-002	-1.564019e+002
8260375000	1.225996e-002	1.445521e+002	9.955106e-001	8.745682e+001	9.950661e-001	8.762459e+001	1.247735e-002	-1.575466e+002
8263000000	1.240718e-002	1.442833e+002	9.955331e-001	8.660132e+001	9.950406e-001	8.677034e+001	1.274399e-002	-1.586519e+002
8265625000	1.252877e-002	1.440947e+002	9.954825e-001	8.574769e+001	9.950263e-001	8.591530e+001	1.298773e-002	-1.596546e+002
8268250000	1.262572e-002	1.439633e+002	9.954925e-001	8.489093e+001	9.950074e-001	8.505971e+001	1.319490e-002	-1.606792e+002
8270875000	1.272151e-002	1.437156e+002	9.955125e-001	8.403878e+001	9.949759e-001	8.420588e+001	1.340242e-002	-1.617918e+002
8273500000	1.277440e-002	1.435319e+002	9.954885e-001	8.318606e+001	9.949595e-001	8.335250e+001	1.360606e-002	-1.628175e+002
8276125000	1.285328e-002	1.433236e+002	9.954954e-001	8.233483e+001	9.949636e-001	8.250125e+001	1.377978e-002	-1.637929e+002
8278750000	1.296351e-002	1.432011e+002	9.954983e-001	8.148171e+001	9.949697e-001	8.164889e+001	1.398794e-002	-1.649371e+002
8281375000	1.303273e-002	1.429142e+002	9.954856e-001	8.063191e+001	9.949799e-001	8.079587e+001	1.415583e-002	-1.659747e+002
8284000000	1.309251e-002	1.426861e+002	9.955188e-001	7.977876e+001	9.949604e-001	7.994604e+001	1.429216e-002	-1.670094e+002
8286625000	1.315911e-002	1.424382e+002	9.955164e-001	7.893000e+001	9.949780e-001	7.909327e+001	1.440227e-002	-1.681614e+002
8289250000	1.319869e-002	1.421202e+002	9.955337e-001	7.807751e+001	9.949878e-001	7.824432e+001	1.454736e-002	-1.693311e+002
8291875000	1.325242e-002	1.418215e+002	9.955477e-001	7.722707e+001	9.949997e-001	7.739438e+001	1.462348e-002	-1.704768e+002
8294500000	1.330096e-002	1.413974e+002	9.955631e-001	7.637479e+001	9.949931e-001	7.654716e+001	1.471673e-002	-1.716515e+002
8297125000	1.334582e-002	1.411906e+002	9.955199e-001	7.552601e+001	9.949925e-001	7.569565e+001	1.480286e-002	-1.728892e+002
8299750000	1.337028e-002	1.409807e+002	9.954944e-001	7.467386e+001	9.950124e-001	7.484703e+001	1.486273e-002	-1.739919e+002
8302375000	1.342903e-002	1.406396e+002	9.954689e-001	7.382730e+001	9.950217e-001	7.399584e+001	1.491754e-002	-1.751361e+002
8305000000	1.347774e-002	1.404410e+002	9.954641e-001	7.297909e+001	9.950048e-001	7.314946e+001	1.497899e-002	-1.764701e+002
8307625000	1.351245e-002	1.400887e+002	9.954776e-001	7.213274e+001	9.950116e-001	7.229907e+001	1.504765e-002	-1.777256e+002
8310250000	1.358830e-002	1.398086e+002	9.954716e-001	7.128598e+001	9.950331e-001	7.145251e+001	1.508543e-002	-1.790361e+002
8312875000	1.368296e-002	1.394919e+002	9.954445e-001	7.044365e+001	9.950249e-001	7.060645e+001	1.513573e-002	1.796813e+002
8315500000	1.375991e-002	1.391241e+002	9.954250e-001	6.959634e+001	9.950334e-001	6.976077e+001	1.517292e-002	1.783319e+002
8318125000	1.385550e-002	1.388312e+002	9.954319e-001	6.875210e+001	9.950130e-001	6.891608e+001	1.522279e-002	1.769654e+002
8320750000	1.395610e-002	1.384917e+002	9.954413e-001	6.790983e+001	9.950294e-001	6.807130e+001	1.525997e-002	1.755231e+002
8323375000	1.404306e-002	1.380343e+002	9.954274e-001	6.706710e+001	9.950363e-001	6.722697e+001	1.529542e-002	1.740957e+002
8326000000	1.417850e-002	1.375804e+002	9.954318e-001	6.622600e+001	9.950257e-001	6.638321e+001	1.531299e-002	1.726121e+002
8328625000	1.428905e-002	1.372468e+002	9.954651e-001	6.538385e+001	9.950484e-001	6.553709e+001	1.534709e-002	1.712379e+002
8331250000	1.441460e-002	1.368305e+002	9.954324e-001	6.454666e+001	9.950314e-001	6.469293e+001	1.536985e-002	1.697340e+002
8333875000	1.455137e-002	1.363149e+002	9.954618e-001	6.370527e+001	9.950618e-001	6.385260e+001	1.540699e-002	1.682239e+002
8336500000	1.469139e-002	1.357585e+002	9.954806e-001	6.286416e+001	9.950523e-001	6.301185e+001	1.547085e-002	1.667193e+002
8339125000	1.484651e-002	1.352858e+002	9.954526e-001	6.202479e+001	9.950269e-001	6.217118e+001	1.550614e-002	1.651867e+002
8341750000	1.498547e-002	1.346909e+002	9.954704e-001	6.118551e+001	9.949885e-001	6.133090e+001	1.557930e-002	1.636893e+002
8344375000	1.511294e-002	1.340846e+002	9.954914e-001	6.034862e+001	9.950088e-001	6.049385e+001	1.562727e-002	1.621292e+002
8347000000	1.527337e-002	1.334537e+002	9.954988e-001	5.950929e+001	9.950011e-001	5.965475e+001	1.569999e-002	1.606010e+002
8349625000	1.543411e-002	1.329602e+002	9.955354e-001	5.867096e+001	9.950332e-001	5.881516e+001	1.579125e-002	1.591567e+002
8352250000	1.559234e-002	1.323842e+002	9.955862e-001	5.783191e+001	9.950282e-001	5.797672e+001	1.588359e-002	1.576598e+002
8354875000	1.576672e-002	1.318173e+002	9.955905e-001	5.699377e+001	9.950513e-001	5.713840e+001	1.600675e-002	1.561651e+002
8357500000	1.594616e-002	1.313494e+002	9.955768e-001	5.615518e+001	9.950241e-001	5.629915e+001	1.613171e-002	1.547746e+002
8360125000	1.610079e-002	1.307633e+002	9.955956e-001	5.531710e+001	9.950214e-001	5.546344e+001	1.628332e-002	1.532543e+002
8362750000	1.630669e-002	1.301980e+002	9.956135e-001	5.448073e+001	9.950613e-001	5.462551e+001	1.642761e-002	1.519017e+002
8365375000	1.651299e-002	1.296113e+002	9.956168e-001	5.364088e+001	9.950626e-001	5.378824e+001	1.663288e-002	1.504303e+002
8368000000	1.672560e-002	1.290995e+002	9.956076e-001	5.280445e+001	9.950843e-001	5.295319e+001	1.681090e-002	1.489742e+002
8370625000	1.693800e-002	1.284894e+002	9.955850e-001	5.196784e+001	9.950923e-001	5.211664e+001	1.700695e-002	1.476175e+002
8373250000	1.716952e-002	1.278513e+002	9.955911e-001	5.113261e+001	9.950305e-001	5.127992e+001	1.721891e-002	1.463045e+002
8375875000	1.737226e-002	1.272505e+002	9.955696e-001	5.029705e+001	9.950660e-001	5.044848e+001	1.740928e-002	1.449597e+002
8378500000	1.759104e-002	1.267305e+002	9.955320e-001	4.946416e+001	9.950793e-001	4.961204e+001	1.763266e-002	1.436020e+002
8381125000	1.780676e-002	1.261032e+002	9.955103e-001	4.862880e+001	9.950717e-001	4.877839e+001	1.786046e-002	1.423623e+002
8383750000	1.802285e-002	1.255051e+002	9.955006e-001	4.779493e+001	9.950797e-001	4.794299e+001	1.808800e-002	1.410861e+002
8386375000	1.824069e-002	1.248709e+002	9.954836e-001	4.696373e+001	9.950577e-001	4.710543e+001	1.829495e-002	1.398424e+002
8389000000	1.846011e-002	1.242525e+002	9.954828e-001	4.612776e+001	9.950731e-001	4.627186e+001	1.853153e-002	1.386182e+002
8391625000	1.864613e-002	1.235513e+002	9.954895e-001	4.529784e+001	9.950404e-001	4.543798e+001	1.877489e-002	1.374981e+002
8394250000	1.884735e-002	1.229482e+002	9.954738e-001	4.446368e+001	9.950505e-001	4.460632e+001	1.900420e-002	1.363683e+002
8396875000	1.904169e-002	1.222990e+002	9.954675e-001	4.363422e+001	9.950527e-001	4.377086e+001	1.923916e-002	1.352645e+002
8399500000	1.922485e-002	1.217508e+002	9.954113e-001	4.280457e+001	9.950540e-001	4.293986e+001	1.948326e-002	1.342601e+002
8402125000	1.942220e-002	1.210729e+002	9.954091e-001	4.197243e+001	9.950264e-001	4.210884e+001	1.970600e-002	1.332502e+002
8404750000	1.960450e-002	1.204407e+002	9.954446e-001	4.114275e+001	9.950544e-001	4.127987e+001	1.994009e-002	1.322743e+002
8407375000	1.977365e-002	1.198723e+002	9.954112e-001	4.031245e+001	9.950667e-001	4.045306e+001	2.016652e-002	1.313673e+002
8410000000	1.998032e-002	1.192420e+002	9.954439e-001	3.948363e+001	9.950422e-001	3.962390e+001	2.039359e-002	1.304538e+002
8412625000	2.013424e-002	1.185897e+002	9.954557e-001	3.865462e+001	9.950399e-001	3.879369e+001	2.057844e-002	1.296064e+002
8415250000	2.030869e-002	1.179543e+002	9.954803e-001	3.782682e+001	9.950754e-001	3.796654e+001	2.081655e-002	1.288070e+002
8417875000	2.047239e-002	1.172947e+002	9.954737e-001	3.699740e+001	9.950672e-001	3.713763e+001	2.099672e-002	1.279815e+002
8420500000	2.063217e-002	1.166083e+002	9.955004e-001	3.617128e+001	9.950644e-001	3.630823e+001	2.119778e-002	1.272356e+002
8423125000	2.074628e-002	1.159306e+002	9.955369e-001	3.533934e+001	9.950374e-001	3.547929e+001	2.135808e-002	1.264318e+002
8425750000	2.089466e-002	1.152959e+002	9.954956e-001	3.451374e+001	9.950348e-001	3.465416e+001	2.154029e-002	1.257675e+002
8428375000	2.103131e-002	1.146105e+002	9.955187e-001	3.368702e+001	9.950203e-001	3.382749e+001	2.168074e-002	1.251040e+002
8431000000	2.114345e-002	1.139001e+002	9.955404e-001	3.286164e+001	9.950528e-001	3.300045e+001	2.183061e-002	1.244776e+002
8433625000	2.127322e-002	1.131738e+002	9.955388e-001	3.203568e+001	9.950434e-001	3.217539e+001	2.197953e-002	1.238531e+002
8436250000	2.135442e-002	1.124494e+002	9.955346e-001	3.120872e+001	9.950689e-001	3.134752e+001	2.210969e-002	1.232905e+002
8438875000	2.143633e-002	1.117825e+002	9.955531e-001	3.038187e+001	9.950364e-001	3.051990e+001	2.223287e-002	1.226929e+002
8441500000	2.150899e-002	1.110058e+002	9.955470e-001	2.955530e+001	9.950457e-001	2.969460e+001	2.232324e-002	1.221411e+002
8444125000	2.157953e-002	1.102564e+002	9.954826e-001	2.873024e+001	9.950066e-001	2.886897e+001	2.243280e-002	1.215986e+002
8446750000	2.164609e-002	1.095354e+002	9.954607e-001	2.790908e+001	9.949616e-001	2.804447e+001	2.252106e-002	1.210939e+002
8449375000	2.170162e-002	1.087684e+002	9.954376e-001	2.708301e+001	9.949630e-001	2.721880e+001	2.260171e-002	1.206016e+002
8452000000	2.174535e-002	1.079052e+002	9.954474e-001	2.626085e+001	9.949787e-001	2.639633e+001	2.266451e-002	1.201023e+002
8454625000	2.176955e-002	1.071547e+002	9.954218e-001	2.543730e+001	9.949292e-001	2.557029e+001	2.269896e-002	1.196172e+002
8457250000	2.181000e-002	1.063349e+002	9.953816e-001	2.461490e+001	9.949279e-001	2.474933e+001	2.276449e-002	1.191296e+002
8459875000	2.182697e-002	1.055200e+002	9.953873e-001	2.379128e+001	9.948861e-001	2.392548e+001	2.279920e-002	1.186066e+002
8462500000	2.183432e-002	1.046714e+002	9.953743e-001	2.296945e+001	9.949205e-001	2.310446e+001	2.282454e-002	1.180786e+002
8465125000	2.184003e-002	1.038090e+002	9.953653e-001	2.214697e+001	9.948915e-001	2.228176e+001	2.284900e-002	1.175568e+002
8467750000	2.185428e-002	1.029424e+002	9.953583e-001	2.132698e+001	9.948879e-001	2.146089e+001	2.286950e-002	1.170367e+002
8470375000	2.183094e-002	1.020268e+002	9.953259e-001	2.050571e+001	9.948845e-001	2.063873e+001	2.285884e-002	1.164693e+002
8473000000	2.181503e-002	1.010949e+002	9.953557e-001	1.968548e+001	9.948962e-001	1.981798e+001	2.282466e-002	1.159156e+002
8475625000	2.179258e-002	1.002139e+002	9.953759e-001	1.886448e+001	9.948500e-001	1.899815e+001	2.283198e-002	1.153352e+002
8478250000	2.178426e-002	9.928432e+001	9.953577e-001	1.804029e+001	9.948499e-001	1.817815e+001	2.278503e-002	1.147391e+002
8480875000	2.175972e-002	9.837091e+001	9.953605e-001	1.722420e+001	9.948215e-001	1.735623e+001	2.275603e-002	1.141173e+002
8483500000	2.173698e-002	9.744767e+001	9.953453e-001	1.640390e+001	9.948064e-001	1.653781e+001	2.270441e-002	1.134523e+002
8486125000	2.170903e-002	9.650386e+001	9.953289e-001	1.558584e+001	9.948013e-001	1.571884e+001	2.268105e-002	1.127727e+002
8488750000	2.166543e-002	9.559780e+001	9.953265e-001	1.477003e+001	9.947908e-001	1.490196e+001	2.261120e-002	1.120596e+002
8491375000	2.164654e-002	9.463330e+001	9.953190e-001	1.395549e+001	9.947916e-001	1.408350e+001	2.254949e-002	1.112935e+002
8494000000	2.163116e-002	9.368176e+001	9.953061e-001	1.313566e+001	9.947929e-001	1.326646e+001	2.248679e-002	1.105684e+002
8496625000	2.159552e-002	9.276251e+001	9.952972e-001	1.231997e+001	9.947910e-001	1.244795e+001	2.241888e-002	1.097579e+002
8499250000	2.155412e-002	9.181391e+001	9.953256e-001	1.150603e+001	9.948101e-001	1.163083e+001	2.233676e-002	1.088674e+002
8501875000	2.157930e-002	9.086600e+001	9.953831e-001	1.070365e+001	9.948067e-001	1.082260e+001	2.227661e-002	1.078316e+002
8504500000	2.159214e-002	8.999353e+001	9.953291e-001	9.886613e+000	9.948259e-001	1.000528e+001	2.212713e-002	1.069116e+002
8507125000	2.155626e-002	8.897399e+001	9.953718e-001	9.068688e+000	9.947742e-001	9.192340e+000	2.212044e-002	1.060678e+002
8509750000	2.156741e-002	8.820958e+001	9.953928e-001	8.253657e+000	9.948005e-001	8.375799e+000	2.200235e-002	1.050457e+002
8512375000	2.158563e-002	8.724342e+001	9.954042e-001	7.432507e+000	9.947669e-001	7.560988e+000	2.194472e-002	1.039602e+002
8515000000	2.153977e-002	8.645569e+001	9.954133e-001	6.618841e+000	9.948036e-001	6.749126e+000	2.183312e-002	1.029723e+002
8517625000	2.153676e-002	8.564262e+001	9.953961e-001	5.804726e+000	9.948862e-001	5.931238e+000	2.169468e-002	1.020175e+002
8520250000	2.156480e-002	8.479637e+001	9.954062e-001	4.990419e+000	9.948590e-001	5.120384e+000	2.162931e-002	1.008191e+002
8522875000	2.156975e-002	8.396284e+001	9.953742e-001	4.173789e+000	9.948712e-001	4.306672e+000	2.154623e-002	9.974893e+001
8525500000	2.157566e-002	8.319348e+001	9.953978e-001	3.360080e+000	9.949093e-001	3.491179e+000	2.145937e-002	9.856030e+001
8528125000	2.156615e-002	8.249248e+001	9.954110e-001	2.549048e+000	9.948142e-001	2.678839e+000	2.134652e-002	9.734717e+001
8530750000	2.159573e-002	8.169786e+001	9.954793e-001	1.737044e+000	9.948734e-001	1.870160e+000	2.128830e-002	9.615441e+001
8533375000	2.166586e-002	8.094971e+001	9.954446e-001	9.267545e-001	9.949057e-001	1.055404e+000	2.118415e-002	9.491016e+001
8536000000	2.166671e-002	8.034523e+001	9.955269e-001	1.101411e-001	9.949055e-001	2.445085e-001	2.116716e-002	9.369861e+001
8538625000	2.172282e-002	7.963635e+001	9.955645e-001	-7.005456e-001	9.948620e-001	-5.678334e-001	2.111176e-002	9.239342e+001
8541250000	2.172968e-002	7.889055e+001	9.955288e-001	-1.517854e+000	9.949136e-001	-1.383772e+000	2.105510e-002	9.125170e+001
8543875000	2.177873e-002	7.825099e+001	9.955357e-001	-2.327934e+000	9.948762e-001	-2.193647e+000	2.101141e-002	8.996853e+001
8546500000	2.183078e-002	7.759973e+001	9.955140e-001	-3.141563e+000	9.948870e-001	-3.002105e+000	2.099478e-002	8.872537e+001
8549125000	2.184481e-002	7.695922e+001	9.954227e-001	-3.949776e+000	9.948867e-001	-3.809919e+000	2.095668e-002	8.738117e+001
8551750000	2.189712e-002	7.643551e+001	9.955181e-001	-4.761007e+000	9.948759e-001	-4.622848e+000	2.095145e-002	8.614337e+001
8554375000	2.193001e-002	7.586157e+001	9.954777e-001	-5.568680e+000	9.948217e-001	-5.428006e+000	2.095319e-002	8.482664e+001
8557000000	2.195128e-002	7.537583e+001	9.954528e-001	-6.380511e+000	9.948802e-001	-6.235072e+000	2.092140e-002	8.357732e+001
8559625000	2.203207e-002	7.481358e+001	9.955124e-001	-7.190635e+000	9.949003e-001	-7.043981e+000	2.095628e-002	8.228092e+001
8562250000	2.203575e-002	7.432801e+001	9.955348e-001	-7.996708e+000	9.949087e-001	-7.851136e+000	2.097201e-002	8.105940e+001
8564875000	2.206399e-002	7.381288e+001	9.955462e-001	-8.806498e+000	9.949243e-001	-8.654937e+000	2.099301e-002	7.981141e+001
8567500000	2.211740e-002	7.349410e+001	9.955650e-001	-9.615107e+000	9.949508e-001	-9.462340e+000	2.104876e-002	7.858379e+001
8570125000	2.216938e-002	7.294260e+001	9.955718e-001	-1.042405e+001	9.949116e-001	-1.027092e+001	2.105511e-002	7.741344e+001
8572750000	2.223246e-002	7.249492e+001	9.955936e-001	-1.123535e+001	9.949892e-001	-1.107926e+001	2.112676e-002	7.606609e+001
8575375000	2.225685e-002	7.207939e+001	9.955739e-001	-1.204252e+001	9.949308e-001	-1.188610e+001	2.118671e-002	7.500233e+001
8578000000	2.230306e-002	7.161467e+001	9.955551e-001	-1.285007e+001	9.949244e-001	-1.269164e+001	2.126509e-002	7.384851e+001
8580625000	2.232891e-002	7.119403e+001	9.955722e-001	-1.366101e+001	9.949633e-001	-1.349774e+001	2.131869e-002	7.257810e+001
8583250000	2.235034e-002	7.077114e+001	9.955869e-001	-1.446478e+001	9.949703e-001	-1.430175e+001	2.136154e-002	7.154835e+001
8585875000	2.238781e-002	7.030590e+001	9.955478e-001	-1.527871e+001	9.949674e-001	-1.510991e+001	2.142408e-002	7.033878e+001
8588500000	2.237948e-002	6.991095e+001	9.956096e-001	-1.608128e+001	9.949882e-001	-1.591144e+001	2.147053e-002	6.934567e+001
8591125000	2.239644e-002	6.950158e+001	9.955727e-001	-1.688220e+001	9.949886e-001	-1.671384e+001	2.150756e-002	6.825936e+001
8593750000	2.238885e-002	6.912145e+001	9.955896e-001	-1.768756e+001	9.949559e-001	-1.751948e+001	2.157751e-002	6.715492e+001
8596375000	2.237287e-002	6.874842e+001	9.955559e-001	-1.849423e+001	9.949096e-001	-1.832734e+001	2.161949e-002	6.613762e+001
8599000000	2.237409e-002	6.833291e+001	9.955647e-001	-1.930245e+001	9.949156e-001	-1.912571e+001	2.162454e-002	6.508365e+001
8601625000	2.233964e-002	6.780241e+001	9.954910e-001	-2.010317e+001	9.949196e-001	-1.993384e+001	2.165645e-002	6.414141e+001
8604250000	2.231793e-002	6.742834e+001	9.955171e-001	-2.091006e+001	9.949533e-001	-2.073542e+001	2.170467e-002	6.329531e+001
8606875000	2.225222e-002	6.697294e+001	9.955152e-001	-2.171081e+001	9.949119e-001	-2.154039e+001	2.170163e-002	6.235655e+001
8609500000	2.224232e-002	6.656295e+001	9.954817e-001	-2.251771e+001	9.949165e-001	-2.233788e+001	2.169745e-002	6.148554e+001
8612125000	2.219774e-002	6.614635e+001	9.955172e-001	-2.331821e+001	9.949074e-001	-2.314345e+001	2.166169e-002	6.054862e+001
