!Agilent Technologies,E5071C,MY46631589,B.13.30
!Date: Sun May 30 22:21:31 2021
!Data & Calibration Information:
!Freq	S11:SOLT2(ON)	S21:SOLT2(ON)	S12:SOLT2(ON)	S22:SOLT2(ON)
!PortZ  Port1:50+j0    Port2:50+j0
!Above PortZ is port z conversion or system Z0 setting when saving the data.
!When reading, reference impedance value at option line is always used.
# Hz S MA R 50
8200000000	7.107929e-001	-3.565905e+001	6.790138e-001	6.162174e+001	6.780449e-001	6.210881e+001	7.117774e-001	-2.221615e+001
8202625000	7.103086e-001	-3.653036e+001	6.791849e-001	6.076930e+001	6.782238e-001	6.125226e+001	7.115139e-001	-2.305856e+001
8205250000	7.099779e-001	-3.740725e+001	6.793910e-001	5.991592e+001	6.784294e-001	6.039499e+001	7.112221e-001	-2.389935e+001
8207875000	7.096201e-001	-3.828083e+001	6.795724e-001	5.906259e+001	6.786433e-001	5.953799e+001	7.109391e-001	-2.473861e+001
8210500000	7.092376e-001	-3.915726e+001	6.797373e-001	5.820898e+001	6.788218e-001	5.868098e+001	7.106580e-001	-2.558067e+001
8213125000	7.089326e-001	-4.003187e+001	6.798603e-001	5.735751e+001	6.789530e-001	5.782786e+001	7.103104e-001	-2.642476e+001
8215750000	7.086279e-001	-4.091221e+001	6.800170e-001	5.651155e+001	6.791492e-001	5.697501e+001	7.100037e-001	-2.726233e+001
8218375000	7.083542e-001	-4.179511e+001	6.802176e-001	5.566234e+001	6.793466e-001	5.612323e+001	7.096554e-001	-2.809847e+001
8221000000	7.080990e-001	-4.267789e+001	6.804022e-001	5.481677e+001	6.795615e-001	5.526758e+001	7.093999e-001	-2.893395e+001
8223625000	7.078458e-001	-4.356474e+001	6.805519e-001	5.396477e+001	6.797828e-001	5.441395e+001	7.091121e-001	-2.976920e+001
8226250000	7.076018e-001	-4.445324e+001	6.807287e-001	5.311762e+001	6.799681e-001	5.356097e+001	7.088104e-001	-3.060531e+001
8228875000	7.074007e-001	-4.534099e+001	6.809067e-001	5.226894e+001	6.801931e-001	5.270512e+001	7.085417e-001	-3.144125e+001
8231500000	7.072153e-001	-4.623192e+001	6.811114e-001	5.141784e+001	6.803953e-001	5.185328e+001	7.082712e-001	-3.227379e+001
8234125000	7.070263e-001	-4.712111e+001	6.813267e-001	5.056767e+001	6.806197e-001	5.099712e+001	7.080405e-001	-3.310703e+001
8236750000	7.068642e-001	-4.801213e+001	6.815011e-001	4.972012e+001	6.808188e-001	5.014496e+001	7.078162e-001	-3.393708e+001
8239375000	7.066819e-001	-4.890547e+001	6.817156e-001	4.887069e+001	6.810383e-001	4.929122e+001	7.075951e-001	-3.477330e+001
8242000000	7.066063e-001	-4.979802e+001	6.819545e-001	4.802277e+001	6.812513e-001	4.843621e+001	7.073245e-001	-3.560161e+001
8244625000	7.064804e-001	-5.069255e+001	6.821723e-001	4.717146e+001	6.814519e-001	4.758219e+001	7.071551e-001	-3.643306e+001
8247250000	7.063826e-001	-5.158639e+001	6.823898e-001	4.632162e+001	6.816667e-001	4.672717e+001	7.069374e-001	-3.726025e+001
8249875000	7.062514e-001	-5.247802e+001	6.826268e-001	4.547227e+001	6.818725e-001	4.587548e+001	7.067785e-001	-3.808830e+001
8252500000	7.062043e-001	-5.337113e+001	6.828351e-001	4.462309e+001	6.820860e-001	4.502032e+001	7.066081e-001	-3.891481e+001
8255125000	7.061993e-001	-5.426657e+001	6.830657e-001	4.377312e+001	6.822908e-001	4.416602e+001	7.064397e-001	-3.973978e+001
8257750000	7.061486e-001	-5.515707e+001	6.832943e-001	4.292619e+001	6.824900e-001	4.331342e+001	7.063213e-001	-4.056142e+001
8260375000	7.061562e-001	-5.605043e+001	6.835079e-001	4.207526e+001	6.826896e-001	4.245936e+001	7.061805e-001	-4.138287e+001
8263000000	7.061470e-001	-5.694149e+001	6.837581e-001	4.122472e+001	6.828773e-001	4.160594e+001	7.060956e-001	-4.220412e+001
8265625000	7.061639e-001	-5.783359e+001	6.839566e-001	4.037784e+001	6.830837e-001	4.075208e+001	7.059958e-001	-4.302443e+001
8268250000	7.061582e-001	-5.872691e+001	6.841443e-001	3.952967e+001	6.832569e-001	3.989863e+001	7.059628e-001	-4.384446e+001
8270875000	7.062198e-001	-5.961499e+001	6.843793e-001	3.868176e+001	6.834299e-001	3.904339e+001	7.059384e-001	-4.466089e+001
8273500000	7.062357e-001	-6.050538e+001	6.845432e-001	3.783684e+001	6.835816e-001	3.819144e+001	7.058620e-001	-4.547877e+001
8276125000	7.062733e-001	-6.138897e+001	6.847173e-001	3.698817e+001	6.837412e-001	3.734032e+001	7.058653e-001	-4.629431e+001
8278750000	7.062909e-001	-6.227310e+001	6.849271e-001	3.614160e+001	6.839038e-001	3.648850e+001	7.058427e-001	-4.710854e+001
8281375000	7.063290e-001	-6.315330e+001	6.850934e-001	3.529709e+001	6.840692e-001	3.563715e+001	7.058574e-001	-4.792481e+001
8284000000	7.062904e-001	-6.403321e+001	6.852743e-001	3.445314e+001	6.841869e-001	3.478850e+001	7.058571e-001	-4.873516e+001
8286625000	7.063196e-001	-6.490635e+001	6.854663e-001	3.361120e+001	6.843767e-001	3.393892e+001	7.059372e-001	-4.954634e+001
8289250000	7.063700e-001	-6.577994e+001	6.856702e-001	3.276484e+001	6.845278e-001	3.308785e+001	7.059837e-001	-5.035730e+001
8291875000	7.063772e-001	-6.665280e+001	6.858727e-001	3.191739e+001	6.846752e-001	3.223999e+001	7.060693e-001	-5.116645e+001
8294500000	7.063355e-001	-6.752126e+001	6.860682e-001	3.106927e+001	6.847945e-001	3.139374e+001	7.061493e-001	-5.197799e+001
8297125000	7.063002e-001	-6.839044e+001	6.862506e-001	3.022397e+001	6.849435e-001	3.054556e+001	7.062133e-001	-5.278779e+001
8299750000	7.062225e-001	-6.925749e+001	6.864192e-001	2.937836e+001	6.850793e-001	2.970041e+001	7.063058e-001	-5.359926e+001
8302375000	7.061124e-001	-7.011976e+001	6.865867e-001	2.853474e+001	6.851976e-001	2.885517e+001	7.063808e-001	-5.441149e+001
8305000000	7.060063e-001	-7.098257e+001	6.867699e-001	2.768856e+001	6.853196e-001	2.801386e+001	7.064298e-001	-5.522001e+001
8307625000	7.059048e-001	-7.184243e+001	6.869593e-001	2.684502e+001	6.854589e-001	2.717118e+001	7.064776e-001	-5.603063e+001
8310250000	7.057563e-001	-7.269984e+001	6.871196e-001	2.600021e+001	6.855953e-001	2.633254e+001	7.065200e-001	-5.683959e+001
8312875000	7.055887e-001	-7.355263e+001	6.873002e-001	2.516028e+001	6.857643e-001	2.549129e+001	7.065931e-001	-5.765010e+001
8315500000	7.053992e-001	-7.440545e+001	6.874570e-001	2.431965e+001	6.859168e-001	2.465374e+001	7.066006e-001	-5.845980e+001
8318125000	7.051754e-001	-7.525419e+001	6.876316e-001	2.348125e+001	6.861001e-001	2.381804e+001	7.066144e-001	-5.927016e+001
8320750000	7.049570e-001	-7.610607e+001	6.878041e-001	2.264391e+001	6.862670e-001	2.298125e+001	7.066105e-001	-6.007941e+001
8323375000	7.047320e-001	-7.695230e+001	6.879686e-001	2.180781e+001	6.864632e-001	2.214522e+001	7.065721e-001	-6.088907e+001
8326000000	7.044735e-001	-7.779804e+001	6.881682e-001	2.097240e+001	6.866419e-001	2.130722e+001	7.065574e-001	-6.170144e+001
8328625000	7.042135e-001	-7.864612e+001	6.883310e-001	2.013943e+001	6.868479e-001	2.046989e+001	7.065093e-001	-6.251527e+001
8331250000	7.039223e-001	-7.949070e+001	6.885066e-001	1.930617e+001	6.870383e-001	1.963159e+001	7.064260e-001	-6.332808e+001
8333875000	7.036574e-001	-8.033356e+001	6.887002e-001	1.847075e+001	6.872560e-001	1.879592e+001	7.063152e-001	-6.414157e+001
8336500000	7.033692e-001	-8.117270e+001	6.888693e-001	1.763574e+001	6.874704e-001	1.796002e+001	7.061890e-001	-6.495678e+001
8339125000	7.030394e-001	-8.201268e+001	6.890660e-001	1.680109e+001	6.876702e-001	1.712160e+001	7.060341e-001	-6.577425e+001
8341750000	7.027287e-001	-8.284845e+001	6.892500e-001	1.596515e+001	6.878516e-001	1.628672e+001	7.058506e-001	-6.659252e+001
8344375000	7.024227e-001	-8.368123e+001	6.894022e-001	1.512995e+001	6.880356e-001	1.545222e+001	7.056101e-001	-6.740931e+001
8347000000	7.021282e-001	-8.451553e+001	6.895743e-001	1.429281e+001	6.882182e-001	1.461619e+001	7.053557e-001	-6.822894e+001
8349625000	7.018497e-001	-8.535016e+001	6.897503e-001	1.345774e+001	6.884253e-001	1.377744e+001	7.051453e-001	-6.904572e+001
8352250000	7.015237e-001	-8.618673e+001	6.899121e-001	1.262313e+001	6.885868e-001	1.294382e+001	7.048999e-001	-6.986225e+001
8354875000	7.011585e-001	-8.702250e+001	6.900686e-001	1.178972e+001	6.888218e-001	1.210644e+001	7.046386e-001	-7.068050e+001
8357500000	7.008283e-001	-8.785552e+001	6.902629e-001	1.095482e+001	6.890175e-001	1.127063e+001	7.043640e-001	-7.150147e+001
8360125000	7.005454e-001	-8.868876e+001	6.904361e-001	1.012104e+001	6.892286e-001	1.043576e+001	7.040390e-001	-7.231896e+001
8362750000	7.002446e-001	-8.952442e+001	6.906117e-001	9.285575e+000	6.894251e-001	9.597597e+000	7.037284e-001	-7.314051e+001
8365375000	6.999195e-001	-9.036030e+001	6.907637e-001	8.449011e+000	6.896144e-001	8.762847e+000	7.033564e-001	-7.396262e+001
8368000000	6.996472e-001	-9.119797e+001	6.909245e-001	7.615708e+000	6.898206e-001	7.926999e+000	7.030216e-001	-7.478110e+001
8370625000	6.993751e-001	-9.203153e+001	6.910772e-001	6.781636e+000	6.900008e-001	7.091592e+000	7.026674e-001	-7.560412e+001
8373250000	6.990841e-001	-9.287303e+001	6.912511e-001	5.949187e+000	6.901620e-001	6.253130e+000	7.023063e-001	-7.642643e+001
8375875000	6.988404e-001	-9.371292e+001	6.913984e-001	5.115867e+000	6.903378e-001	5.420326e+000	7.019255e-001	-7.724793e+001
8378500000	6.985750e-001	-9.455543e+001	6.915456e-001	4.287828e+000	6.905233e-001	4.583963e+000	7.015666e-001	-7.806840e+001
8381125000	6.983499e-001	-9.539898e+001	6.916788e-001	3.452621e+000	6.906774e-001	3.744684e+000	7.011687e-001	-7.889393e+001
8383750000	6.981092e-001	-9.624383e+001	6.917938e-001	2.621727e+000	6.908147e-001	2.907441e+000	7.008177e-001	-7.971986e+001
8386375000	6.979069e-001	-9.709199e+001	6.919084e-001	1.791809e+000	6.909387e-001	2.068886e+000	7.004596e-001	-8.054739e+001
8389000000	6.977037e-001	-9.794233e+001	6.920362e-001	9.574639e-001	6.910525e-001	1.232955e+000	7.000952e-001	-8.137481e+001
8391625000	6.975395e-001	-9.879032e+001	6.921436e-001	1.303494e-001	6.911722e-001	3.979084e-001	6.997483e-001	-8.220154e+001
8394250000	6.973723e-001	-9.964120e+001	6.922703e-001	-6.983751e-001	6.912973e-001	-4.353480e-001	6.994337e-001	-8.302978e+001
8396875000	6.972219e-001	-1.004927e+002	6.924065e-001	-1.525840e+000	6.914184e-001	-1.270159e+000	6.990661e-001	-8.385773e+001
8399500000	6.971034e-001	-1.013427e+002	6.925309e-001	-2.353774e+000	6.915393e-001	-2.104300e+000	6.986908e-001	-8.468247e+001
8402125000	6.969582e-001	-1.021937e+002	6.926718e-001	-3.183834e+000	6.916347e-001	-2.936525e+000	6.983685e-001	-8.550875e+001
8404750000	6.968767e-001	-1.030442e+002	6.928175e-001	-4.014899e+000	6.917245e-001	-3.770715e+000	6.980554e-001	-8.633376e+001
8407375000	6.967666e-001	-1.038942e+002	6.929680e-001	-4.842921e+000	6.918163e-001	-4.602446e+000	6.977953e-001	-8.715875e+001
8410000000	6.966993e-001	-1.047464e+002	6.931007e-001	-5.674054e+000	6.918959e-001	-5.433893e+000	6.975395e-001	-8.798410e+001
8412625000	6.966380e-001	-1.055959e+002	6.932339e-001	-6.504106e+000	6.919492e-001	-6.267755e+000	6.973035e-001	-8.881151e+001
8415250000	6.966434e-001	-1.064463e+002	6.934029e-001	-7.334933e+000	6.920666e-001	-7.097573e+000	6.971083e-001	-8.963962e+001
8417875000	6.965657e-001	-1.072979e+002	6.935241e-001	-8.167439e+000	6.921150e-001	-7.929875e+000	6.969375e-001	-9.046547e+001
8420500000	6.965631e-001	-1.081493e+002	6.936420e-001	-8.996065e+000	6.921810e-001	-8.761869e+000	6.967635e-001	-9.129460e+001
8423125000	6.965510e-001	-1.089999e+002	6.937882e-001	-9.827950e+000	6.922410e-001	-9.591764e+000	6.966430e-001	-9.212197e+001
8425750000	6.965349e-001	-1.098498e+002	6.939066e-001	-1.065735e+001	6.923226e-001	-1.041980e+001	6.965486e-001	-9.294603e+001
8428375000	6.965385e-001	-1.107015e+002	6.940316e-001	-1.148809e+001	6.923540e-001	-1.124709e+001	6.964568e-001	-9.377156e+001
8431000000	6.965727e-001	-1.115513e+002	6.941417e-001	-1.231536e+001	6.924011e-001	-1.207700e+001	6.963726e-001	-9.459648e+001
8433625000	6.966011e-001	-1.124009e+002	6.942453e-001	-1.314389e+001	6.924438e-001	-1.290261e+001	6.963374e-001	-9.542043e+001
8436250000	6.966542e-001	-1.132499e+002	6.943359e-001	-1.397276e+001	6.925046e-001	-1.372999e+001	6.962803e-001	-9.624485e+001
8438875000	6.966862e-001	-1.140975e+002	6.944264e-001	-1.479910e+001	6.925265e-001	-1.455514e+001	6.962443e-001	-9.706874e+001
8441500000	6.967414e-001	-1.149424e+002	6.944838e-001	-1.562646e+001	6.925945e-001	-1.538103e+001	6.962353e-001	-9.789135e+001
8444125000	6.967691e-001	-1.157900e+002	6.945445e-001	-1.645203e+001	6.926237e-001	-1.620710e+001	6.962508e-001	-9.871282e+001
8446750000	6.968411e-001	-1.166337e+002	6.946204e-001	-1.727676e+001	6.926489e-001	-1.703534e+001	6.962602e-001	-9.953317e+001
8449375000	6.968893e-001	-1.174796e+002	6.946900e-001	-1.810304e+001	6.926820e-001	-1.786051e+001	6.962756e-001	-1.003565e+002
8452000000	6.969530e-001	-1.183172e+002	6.947450e-001	-1.892687e+001	6.927219e-001	-1.868280e+001	6.962981e-001	-1.011729e+002
8454625000	6.970015e-001	-1.191572e+002	6.948117e-001	-1.975092e+001	6.927685e-001	-1.950750e+001	6.963508e-001	-1.019914e+002
8457250000	6.970427e-001	-1.199927e+002	6.948382e-001	-2.057468e+001	6.928271e-001	-2.032869e+001	6.963859e-001	-1.028066e+002
8459875000	6.970952e-001	-1.208289e+002	6.949011e-001	-2.139857e+001	6.928607e-001	-2.115514e+001	6.964520e-001	-1.036175e+002
8462500000	6.971448e-001	-1.216626e+002	6.949196e-001	-2.222334e+001	6.929177e-001	-2.197839e+001	6.965341e-001	-1.044282e+002
8465125000	6.971972e-001	-1.224902e+002	6.949833e-001	-2.304524e+001	6.929548e-001	-2.280111e+001	6.966031e-001	-1.052373e+002
8467750000	6.972516e-001	-1.233180e+002	6.950510e-001	-2.386814e+001	6.930241e-001	-2.362528e+001	6.967104e-001	-1.060469e+002
8470375000	6.972875e-001	-1.241418e+002	6.950872e-001	-2.469089e+001	6.930591e-001	-2.444831e+001	6.967918e-001	-1.068552e+002
8473000000	6.973337e-001	-1.249657e+002	6.951413e-001	-2.551304e+001	6.931413e-001	-2.527095e+001	6.969007e-001	-1.076617e+002
8475625000	6.973634e-001	-1.257871e+002	6.951897e-001	-2.633536e+001	6.931598e-001	-2.609265e+001	6.969383e-001	-1.084692e+002
8478250000	6.973652e-001	-1.266094e+002	6.952270e-001	-2.715891e+001	6.931956e-001	-2.691291e+001	6.969853e-001	-1.092708e+002
8480875000	6.973641e-001	-1.274257e+002	6.952615e-001	-2.797618e+001	6.932107e-001	-2.773087e+001	6.970061e-001	-1.100677e+002
8483500000	6.973484e-001	-1.282417e+002	6.953160e-001	-2.879421e+001	6.932396e-001	-2.855088e+001	6.970382e-001	-1.108642e+002
8486125000	6.973157e-001	-1.290570e+002	6.953485e-001	-2.961105e+001	6.933060e-001	-2.936820e+001	6.970896e-001	-1.116569e+002
8488750000	6.972846e-001	-1.298688e+002	6.953939e-001	-3.042582e+001	6.933331e-001	-3.018306e+001	6.971165e-001	-1.124484e+002
8491375000	6.972161e-001	-1.306810e+002	6.954349e-001	-3.123830e+001	6.933920e-001	-3.100023e+001	6.971848e-001	-1.132401e+002
8494000000	6.971198e-001	-1.314937e+002	6.954931e-001	-3.205495e+001	6.934207e-001	-3.181548e+001	6.971934e-001	-1.140323e+002
8496625000	6.970247e-001	-1.323041e+002	6.955407e-001	-3.286739e+001	6.934498e-001	-3.262764e+001	6.971803e-001	-1.148219e+002
8499250000	6.969385e-001	-1.331148e+002	6.956154e-001	-3.367867e+001	6.935015e-001	-3.344324e+001	6.972001e-001	-1.156097e+002
8501875000	6.966897e-001	-1.338893e+002	6.957017e-001	-3.446650e+001	6.934902e-001	-3.424581e+001	6.971894e-001	-1.163962e+002
8504500000	6.965199e-001	-1.347003e+002	6.957311e-001	-3.527683e+001	6.935032e-001	-3.505608e+001	6.971834e-001	-1.171823e+002
8507125000	6.963781e-001	-1.355053e+002	6.958524e-001	-3.608587e+001	6.935570e-001	-3.586750e+001	6.971468e-001	-1.179691e+002
8509750000	6.962438e-001	-1.363144e+002	6.959272e-001	-3.689545e+001	6.936172e-001	-3.667592e+001	6.970890e-001	-1.187566e+002
8512375000	6.959882e-001	-1.371255e+002	6.959565e-001	-3.771707e+001	6.936386e-001	-3.748291e+001	6.969987e-001	-1.195448e+002
8515000000	6.957955e-001	-1.379330e+002	6.961060e-001	-3.852180e+001	6.937155e-001	-3.829091e+001	6.969608e-001	-1.203277e+002
8517625000	6.956633e-001	-1.387373e+002	6.961511e-001	-3.932646e+001	6.937932e-001	-3.909647e+001	6.968199e-001	-1.211114e+002
8520250000	6.954365e-001	-1.395450e+002	6.962417e-001	-4.013793e+001	6.938839e-001	-3.990090e+001	6.967463e-001	-1.218980e+002
8522875000	6.952165e-001	-1.403503e+002	6.963230e-001	-4.094690e+001	6.939668e-001	-4.070666e+001	6.966125e-001	-1.226834e+002
8525500000	6.950423e-001	-1.411560e+002	6.964329e-001	-4.175398e+001	6.940605e-001	-4.151201e+001	6.964611e-001	-1.234721e+002
8528125000	6.948737e-001	-1.419584e+002	6.965877e-001	-4.255798e+001	6.940997e-001	-4.231481e+001	6.962964e-001	-1.242498e+002
8530750000	6.946219e-001	-1.427633e+002	6.966580e-001	-4.336385e+001	6.941934e-001	-4.312123e+001	6.961289e-001	-1.250461e+002
8533375000	6.944182e-001	-1.435681e+002	6.967259e-001	-4.416973e+001	6.942894e-001	-4.392438e+001	6.959143e-001	-1.258348e+002
8536000000	6.942501e-001	-1.443744e+002	6.969280e-001	-4.497962e+001	6.944213e-001	-4.472608e+001	6.957987e-001	-1.266273e+002
8538625000	6.940184e-001	-1.451783e+002	6.970648e-001	-4.578565e+001	6.945386e-001	-4.552897e+001	6.955190e-001	-1.274194e+002
8541250000	6.938251e-001	-1.459848e+002	6.971588e-001	-4.659671e+001	6.946831e-001	-4.633501e+001	6.953042e-001	-1.282184e+002
8543875000	6.935964e-001	-1.467932e+002	6.973279e-001	-4.740331e+001	6.947837e-001	-4.713669e+001	6.950638e-001	-1.290137e+002
8546500000	6.933773e-001	-1.476023e+002	6.974194e-001	-4.821184e+001	6.949237e-001	-4.794054e+001	6.947822e-001	-1.298101e+002
8549125000	6.931786e-001	-1.484104e+002	6.974727e-001	-4.902184e+001	6.950732e-001	-4.874742e+001	6.944810e-001	-1.306056e+002
8551750000	6.929883e-001	-1.492227e+002	6.976474e-001	-4.983316e+001	6.951472e-001	-4.955212e+001	6.942282e-001	-1.314101e+002
8554375000	6.927483e-001	-1.500325e+002	6.977466e-001	-5.064179e+001	6.952922e-001	-5.035993e+001	6.938835e-001	-1.322099e+002
8557000000	6.925728e-001	-1.508436e+002	6.978246e-001	-5.145398e+001	6.954008e-001	-5.116011e+001	6.935446e-001	-1.330122e+002
8559625000	6.923403e-001	-1.516576e+002	6.978893e-001	-5.226467e+001	6.955471e-001	-5.196843e+001	6.932803e-001	-1.338159e+002
8562250000	6.921810e-001	-1.524650e+002	6.979988e-001	-5.307084e+001	6.956181e-001	-5.277162e+001	6.929450e-001	-1.346274e+002
8564875000	6.920049e-001	-1.532785e+002	6.981385e-001	-5.387844e+001	6.957785e-001	-5.357655e+001	6.927502e-001	-1.354371e+002
8567500000	6.918850e-001	-1.540932e+002	6.982050e-001	-5.468719e+001	6.959161e-001	-5.438234e+001	6.924422e-001	-1.362498e+002
8570125000	6.916611e-001	-1.549092e+002	6.983128e-001	-5.550039e+001	6.960106e-001	-5.519022e+001	6.920789e-001	-1.370685e+002
8572750000	6.915390e-001	-1.557274e+002	6.984528e-001	-5.631238e+001	6.961278e-001	-5.600083e+001	6.917137e-001	-1.378903e+002
8575375000	6.914087e-001	-1.565470e+002	6.984916e-001	-5.712248e+001	6.962724e-001	-5.681145e+001	6.914026e-001	-1.387098e+002
8578000000	6.912064e-001	-1.573694e+002	6.985704e-001	-5.793513e+001	6.963361e-001	-5.761809e+001	6.910409e-001	-1.395257e+002
8580625000	6.911231e-001	-1.581905e+002	6.986189e-001	-5.874767e+001	6.964278e-001	-5.842774e+001	6.907089e-001	-1.403486e+002
8583250000	6.910292e-001	-1.590029e+002	6.987144e-001	-5.955670e+001	6.965485e-001	-5.923961e+001	6.904699e-001	-1.411654e+002
8585875000	6.908905e-001	-1.598233e+002	6.987474e-001	-6.036902e+001	6.965777e-001	-6.004669e+001	6.901383e-001	-1.419907e+002
8588500000	6.907718e-001	-1.606394e+002	6.988144e-001	-6.117713e+001	6.966534e-001	-6.085773e+001	6.898356e-001	-1.428150e+002
8591125000	6.907161e-001	-1.614518e+002	6.988337e-001	-6.198625e+001	6.967539e-001	-6.166630e+001	6.896533e-001	-1.436363e+002
8593750000	6.906702e-001	-1.622695e+002	6.988767e-001	-6.279755e+001	6.967858e-001	-6.247764e+001	6.893636e-001	-1.444610e+002
8596375000	6.905600e-001	-1.630853e+002	6.989321e-001	-6.360604e+001	6.967782e-001	-6.328648e+001	6.890967e-001	-1.452887e+002
8599000000	6.905881e-001	-1.639028e+002	6.989609e-001	-6.442067e+001	6.968077e-001	-6.409352e+001	6.889437e-001	-1.461113e+002
8601625000	6.905164e-001	-1.647102e+002	6.989416e-001	-6.522751e+001	6.968277e-001	-6.490328e+001	6.887925e-001	-1.469368e+002
8604250000	6.905380e-001	-1.655285e+002	6.989933e-001	-6.603352e+001	6.968366e-001	-6.571189e+001	6.886257e-001	-1.477621e+002
