!Agilent Technologies,E5071C,MY46631589,B.13.30
!Date: Wed Jun 09 03:06:46 2021
!Data & Calibration Information:
!Freq	S11:SOLT2(ON)	S21:SOLT2(ON)	S12:SOLT2(ON)	S22:SOLT2(ON)
!PortZ  Port1:50+j0    Port2:50+j0
!Above PortZ is port z conversion or system Z0 setting when saving the data.
!When reading, reference impedance value at option line is always used.
# Hz S RI R 50
8200000000	-2.382000e-002	-7.613192e-001	2.566647e-001	5.586672e-001	2.550538e-001	5.590698e-001	5.460070e-001	5.357234e-001
8202625000	-3.571877e-002	-7.603628e-001	2.653283e-001	5.552536e-001	2.637220e-001	5.556500e-001	5.532319e-001	5.273537e-001
8205250000	-4.760776e-002	-7.592464e-001	2.739466e-001	5.516665e-001	2.723572e-001	5.520784e-001	5.602696e-001	5.188900e-001
8207875000	-5.940735e-002	-7.579441e-001	2.825114e-001	5.479342e-001	2.809175e-001	5.483938e-001	5.672079e-001	5.103663e-001
8210500000	-7.116625e-002	-7.564286e-001	2.910200e-001	5.440569e-001	2.894249e-001	5.445593e-001	5.740136e-001	5.017088e-001
8213125000	-8.291249e-002	-7.547530e-001	2.994681e-001	5.400549e-001	2.978692e-001	5.405842e-001	5.807021e-001	4.929924e-001
8215750000	-9.460861e-002	-7.529465e-001	3.078676e-001	5.359342e-001	3.062492e-001	5.365161e-001	5.872146e-001	4.842277e-001
8218375000	-1.062033e-001	-7.509092e-001	3.161566e-001	5.316762e-001	3.145674e-001	5.323096e-001	5.936130e-001	4.753811e-001
8221000000	-1.178297e-001	-7.487287e-001	3.244212e-001	5.272541e-001	3.228068e-001	5.279529e-001	5.998519e-001	4.664207e-001
8223625000	-1.293660e-001	-7.463747e-001	3.325946e-001	5.227707e-001	3.309946e-001	5.234780e-001	6.059548e-001	4.574381e-001
8226250000	-1.409112e-001	-7.438137e-001	3.407306e-001	5.180951e-001	3.391199e-001	5.188888e-001	6.119762e-001	4.483840e-001
8228875000	-1.523805e-001	-7.410932e-001	3.487507e-001	5.133377e-001	3.471643e-001	5.141546e-001	6.177969e-001	4.392942e-001
8231500000	-1.638383e-001	-7.382254e-001	3.567327e-001	5.084175e-001	3.551307e-001	5.093083e-001	6.234806e-001	4.301086e-001
8234125000	-1.752302e-001	-7.351402e-001	3.645991e-001	5.034012e-001	3.630315e-001	5.043508e-001	6.290519e-001	4.209189e-001
8236750000	-1.865406e-001	-7.318402e-001	3.723874e-001	4.982742e-001	3.708667e-001	4.992552e-001	6.345100e-001	4.116555e-001
8239375000	-1.978380e-001	-7.284012e-001	3.801135e-001	4.930371e-001	3.786000e-001	4.940643e-001	6.398199e-001	4.023831e-001
8242000000	-2.090892e-001	-7.247289e-001	3.877631e-001	4.876574e-001	3.862658e-001	4.887293e-001	6.450012e-001	3.930473e-001
8244625000	-2.202473e-001	-7.208345e-001	3.952604e-001	4.821754e-001	3.938254e-001	4.832794e-001	6.500166e-001	3.837234e-001
8247250000	-2.313131e-001	-7.168481e-001	4.027415e-001	4.766025e-001	4.013130e-001	4.777346e-001	6.549104e-001	3.743604e-001
8249875000	-2.423007e-001	-7.126433e-001	4.101253e-001	4.708864e-001	4.087449e-001	4.720558e-001	6.597380e-001	3.648717e-001
8252500000	-2.532620e-001	-7.082938e-001	4.174045e-001	4.650970e-001	4.160698e-001	4.662649e-001	6.643614e-001	3.553920e-001
8255125000	-2.640956e-001	-7.037714e-001	4.246314e-001	4.591727e-001	4.233393e-001	4.604017e-001	6.689288e-001	3.458582e-001
8257750000	-2.748374e-001	-6.990548e-001	4.317080e-001	4.531554e-001	4.304674e-001	4.543989e-001	6.732734e-001	3.363169e-001
8260375000	-2.855117e-001	-6.941404e-001	4.386934e-001	4.470497e-001	4.375264e-001	4.483085e-001	6.775072e-001	3.267174e-001
8263000000	-2.961128e-001	-6.890102e-001	4.456348e-001	4.408080e-001	4.445059e-001	4.420973e-001	6.816211e-001	3.170682e-001
8265625000	-3.066115e-001	-6.837578e-001	4.524691e-001	4.344614e-001	4.513809e-001	4.357595e-001	6.855875e-001	3.073917e-001
8268250000	-3.170231e-001	-6.783635e-001	4.592424e-001	4.280311e-001	4.581958e-001	4.293180e-001	6.894405e-001	2.976621e-001
8270875000	-3.273573e-001	-6.728539e-001	4.658808e-001	4.215109e-001	4.648839e-001	4.228083e-001	6.931150e-001	2.880141e-001
8273500000	-3.375776e-001	-6.672215e-001	4.724535e-001	4.149271e-001	4.714854e-001	4.161852e-001	6.966879e-001	2.782682e-001
8276125000	-3.477003e-001	-6.613989e-001	4.789029e-001	4.082247e-001	4.779653e-001	4.094420e-001	7.001122e-001	2.685477e-001
8278750000	-3.577059e-001	-6.553800e-001	4.852547e-001	4.014134e-001	4.843799e-001	4.026259e-001	7.034442e-001	2.587701e-001
8281375000	-3.676265e-001	-6.491969e-001	4.915283e-001	3.944842e-001	4.906721e-001	3.956831e-001	7.066095e-001	2.489142e-001
8284000000	-3.774318e-001	-6.429233e-001	4.976819e-001	3.874914e-001	4.968607e-001	3.886799e-001	7.096465e-001	2.391149e-001
8286625000	-3.871365e-001	-6.365000e-001	5.037217e-001	3.804102e-001	5.029289e-001	3.815629e-001	7.125346e-001	2.292349e-001
8289250000	-3.967498e-001	-6.299015e-001	5.096721e-001	3.732638e-001	5.089093e-001	3.743505e-001	7.153140e-001	2.194461e-001
8291875000	-4.062196e-001	-6.231975e-001	5.155189e-001	3.660354e-001	5.147254e-001	3.670645e-001	7.179758e-001	2.095912e-001
8294500000	-4.156007e-001	-6.163200e-001	5.212433e-001	3.586907e-001	5.204594e-001	3.597000e-001	7.204618e-001	1.997124e-001
8297125000	-4.249141e-001	-6.093011e-001	5.268715e-001	3.512401e-001	5.261360e-001	3.522264e-001	7.228968e-001	1.897755e-001
8299750000	-4.341171e-001	-6.021451e-001	5.323914e-001	3.437058e-001	5.316258e-001	3.446865e-001	7.250846e-001	1.798469e-001
8302375000	-4.432176e-001	-5.948630e-001	5.377792e-001	3.361251e-001	5.370171e-001	3.370511e-001	7.271433e-001	1.699064e-001
8305000000	-4.522170e-001	-5.874509e-001	5.431086e-001	3.284672e-001	5.422948e-001	3.293790e-001	7.291102e-001	1.599221e-001
8307625000	-4.611125e-001	-5.799066e-001	5.482873e-001	3.207037e-001	5.474330e-001	3.216133e-001	7.308279e-001	1.499435e-001
8310250000	-4.698685e-001	-5.721692e-001	5.533523e-001	3.128750e-001	5.525080e-001	3.138095e-001	7.325229e-001	1.399480e-001
8312875000	-4.785311e-001	-5.643600e-001	5.583062e-001	3.049745e-001	5.574417e-001	3.059229e-001	7.339949e-001	1.299234e-001
8315500000	-4.870922e-001	-5.563950e-001	5.631650e-001	2.970159e-001	5.622629e-001	2.979627e-001	7.353361e-001	1.199083e-001
8318125000	-4.955286e-001	-5.483137e-001	5.678807e-001	2.889654e-001	5.669509e-001	2.899416e-001	7.364954e-001	1.098752e-001
8320750000	-5.038566e-001	-5.400827e-001	5.725114e-001	2.808548e-001	5.715572e-001	2.818660e-001	7.375321e-001	9.983566e-002
8323375000	-5.120473e-001	-5.317541e-001	5.770104e-001	2.726752e-001	5.760363e-001	2.737098e-001	7.384094e-001	8.975606e-002
8326000000	-5.201302e-001	-5.232793e-001	5.813894e-001	2.644181e-001	5.804286e-001	2.654882e-001	7.391221e-001	7.970330e-002
8328625000	-5.280785e-001	-5.146824e-001	5.856432e-001	2.560981e-001	5.846472e-001	2.572204e-001	7.396489e-001	6.967154e-002
8331250000	-5.358914e-001	-5.059621e-001	5.897779e-001	2.477045e-001	5.887599e-001	2.488809e-001	7.399774e-001	5.964880e-002
8333875000	-5.435602e-001	-4.971550e-001	5.937797e-001	2.392595e-001	5.927786e-001	2.404996e-001	7.401953e-001	4.962955e-002
8336500000	-5.511014e-001	-4.882424e-001	5.976558e-001	2.307433e-001	5.966525e-001	2.320462e-001	7.401953e-001	3.958883e-002
8339125000	-5.584934e-001	-4.792547e-001	6.013960e-001	2.221777e-001	6.004276e-001	2.235373e-001	7.400638e-001	2.961291e-002
8341750000	-5.657786e-001	-4.700687e-001	6.050053e-001	2.135511e-001	6.040655e-001	2.149772e-001	7.397982e-001	1.968425e-002
8344375000	-5.728473e-001	-4.607815e-001	6.085077e-001	2.049004e-001	6.075740e-001	2.063744e-001	7.393930e-001	9.758897e-003
8347000000	-5.797713e-001	-4.513572e-001	6.118773e-001	1.961910e-001	6.109732e-001	1.977217e-001	7.388723e-001	-1.527711e-004
8349625000	-5.864566e-001	-4.418806e-001	6.151184e-001	1.874577e-001	6.142705e-001	1.890112e-001	7.382157e-001	-1.005515e-002
8352250000	-5.929981e-001	-4.322806e-001	6.182732e-001	1.786528e-001	6.174505e-001	1.802293e-001	7.374678e-001	-1.996410e-002
8354875000	-5.994175e-001	-4.225696e-001	6.212839e-001	1.698037e-001	6.204806e-001	1.714088e-001	7.365579e-001	-2.975926e-002
8357500000	-6.057082e-001	-4.127539e-001	6.241689e-001	1.609581e-001	6.233743e-001	1.625667e-001	7.355116e-001	-3.951277e-002
8360125000	-6.117909e-001	-4.028483e-001	6.269237e-001	1.520696e-001	6.261650e-001	1.536344e-001	7.343275e-001	-4.925450e-002
8362750000	-6.177437e-001	-3.928983e-001	6.295591e-001	1.430985e-001	6.288275e-001	1.446991e-001	7.329902e-001	-5.897212e-002
8365375000	-6.235545e-001	-3.828306e-001	6.320777e-001	1.340810e-001	6.313916e-001	1.357057e-001	7.315694e-001	-6.867150e-002
8368000000	-6.291101e-001	-3.727034e-001	6.344878e-001	1.250799e-001	6.338256e-001	1.266619e-001	7.300190e-001	-7.837255e-002
8370625000	-6.345691e-001	-3.625276e-001	6.367793e-001	1.159760e-001	6.361227e-001	1.175726e-001	7.283238e-001	-8.804158e-002
8373250000	-6.397974e-001	-3.522997e-001	6.389274e-001	1.068860e-001	6.382798e-001	1.084517e-001	7.265398e-001	-9.767987e-002
8375875000	-6.448969e-001	-3.420614e-001	6.408497e-001	9.772938e-002	6.402605e-001	9.929670e-002	7.244250e-001	-1.072323e-001
8378500000	-6.498202e-001	-3.317028e-001	6.427383e-001	8.858319e-002	6.421371e-001	9.013507e-002	7.223359e-001	-1.167137e-001
8381125000	-6.545361e-001	-3.212961e-001	6.445360e-001	7.937369e-002	6.438897e-001	8.088972e-002	7.202220e-001	-1.262813e-001
8383750000	-6.591010e-001	-3.108917e-001	6.461937e-001	7.012713e-002	6.455454e-001	7.161876e-002	7.179338e-001	-1.358324e-001
8386375000	-6.634940e-001	-3.004008e-001	6.476820e-001	6.085235e-002	6.470823e-001	6.229732e-002	7.154983e-001	-1.453545e-001
8389000000	-6.676857e-001	-2.898358e-001	6.490761e-001	5.150156e-002	6.484571e-001	5.291205e-002	7.129747e-001	-1.548929e-001
8391625000	-6.717251e-001	-2.792190e-001	6.503215e-001	4.212790e-002	6.497072e-001	4.352103e-002	7.103141e-001	-1.644030e-001
8394250000	-6.755953e-001	-2.685790e-001	6.514358e-001	3.272569e-002	6.508112e-001	3.410798e-002	7.075281e-001	-1.738848e-001
8396875000	-6.792634e-001	-2.579009e-001	6.523912e-001	2.331833e-002	6.517664e-001	2.466953e-002	7.046267e-001	-1.833296e-001
8399500000	-6.827780e-001	-2.471993e-001	6.532104e-001	1.386275e-002	6.525604e-001	1.520790e-002	7.015603e-001	-1.927730e-001
8402125000	-6.860791e-001	-2.365032e-001	6.539066e-001	4.400120e-003	6.532219e-001	5.711496e-003	6.983734e-001	-2.022092e-001
8404750000	-6.892445e-001	-2.257316e-001	6.544379e-001	-5.126604e-003	6.537681e-001	-3.815721e-003	6.950468e-001	-2.116532e-001
8407375000	-6.921973e-001	-2.149512e-001	6.548604e-001	-1.467304e-002	6.541812e-001	-1.337174e-002	6.916558e-001	-2.211351e-001
8410000000	-6.950475e-001	-2.041509e-001	6.551111e-001	-2.420493e-002	6.544353e-001	-2.285479e-002	6.880829e-001	-2.303993e-001
8412625000	-6.977203e-001	-1.933383e-001	6.552005e-001	-3.375818e-002	6.545207e-001	-3.235209e-002	6.843363e-001	-2.396789e-001
8415250000	-7.002310e-001	-1.824760e-001	6.551654e-001	-4.334045e-002	6.544866e-001	-4.182770e-002	6.805081e-001	-2.488586e-001
8417875000	-7.025375e-001	-1.716020e-001	6.549708e-001	-5.287795e-002	6.543042e-001	-5.132417e-002	6.765564e-001	-2.580043e-001
8420500000	-7.046674e-001	-1.607397e-001	6.546342e-001	-6.241567e-002	6.539582e-001	-6.084644e-002	6.724479e-001	-2.671251e-001
8423125000	-7.066207e-001	-1.498776e-001	6.541679e-001	-7.192798e-002	6.534946e-001	-7.029623e-002	6.682626e-001	-2.761277e-001
8425750000	-7.083918e-001	-1.390478e-001	6.535490e-001	-8.144283e-002	6.528868e-001	-7.980331e-002	6.639196e-001	-2.850976e-001
8428375000	-7.100127e-001	-1.282311e-001	6.527968e-001	-9.096634e-002	6.521269e-001	-8.927603e-002	6.594422e-001	-2.940111e-001
8431000000	-7.114389e-001	-1.174072e-001	6.518904e-001	-1.004588e-001	6.512757e-001	-9.870766e-002	6.548867e-001	-3.028643e-001
8433625000	-7.127185e-001	-1.065993e-001	6.508533e-001	-1.099676e-001	6.502446e-001	-1.081739e-001	6.501647e-001	-3.116838e-001
8436250000	-7.138494e-001	-9.577251e-002	6.496683e-001	-1.194780e-001	6.490964e-001	-1.176233e-001	6.453260e-001	-3.204572e-001
8438875000	-7.147729e-001	-8.498359e-002	6.483195e-001	-1.289321e-001	6.478183e-001	-1.270306e-001	6.403643e-001	-3.291158e-001
8441500000	-7.155098e-001	-7.425615e-002	6.468435e-001	-1.383195e-001	6.463627e-001	-1.364393e-001	6.352880e-001	-3.376821e-001
8444125000	-7.161291e-001	-6.352245e-002	6.452480e-001	-1.477421e-001	6.447838e-001	-1.458015e-001	6.301135e-001	-3.461910e-001
8446750000	-7.166226e-001	-5.272830e-002	6.435094e-001	-1.571622e-001	6.430980e-001	-1.551670e-001	6.248265e-001	-3.546567e-001
8449375000	-7.169801e-001	-4.186760e-002	6.416221e-001	-1.665557e-001	6.412646e-001	-1.644609e-001	6.194375e-001	-3.629721e-001
8452000000	-7.172162e-001	-3.100634e-002	6.395863e-001	-1.759509e-001	6.392819e-001	-1.738003e-001	6.138789e-001	-3.712455e-001
8454625000	-7.172447e-001	-2.014721e-002	6.373910e-001	-1.853205e-001	6.371977e-001	-1.830844e-001	6.082471e-001	-3.794258e-001
8457250000	-7.170873e-001	-9.347367e-003	6.350901e-001	-1.946017e-001	6.349363e-001	-1.923344e-001	6.024994e-001	-3.875043e-001
8459875000	-7.167761e-001	1.415484e-003	6.326347e-001	-2.038664e-001	6.325371e-001	-2.015601e-001	5.966616e-001	-3.954866e-001
8462500000	-7.163007e-001	1.215886e-002	6.300635e-001	-2.130732e-001	6.299837e-001	-2.107453e-001	5.907243e-001	-4.033617e-001
8465125000	-7.156196e-001	2.287934e-002	6.273485e-001	-2.222311e-001	6.273273e-001	-2.199073e-001	5.847246e-001	-4.111854e-001
8467750000	-7.147811e-001	3.354898e-002	6.245058e-001	-2.313358e-001	6.245236e-001	-2.290318e-001	5.786135e-001	-4.188844e-001
8470375000	-7.137829e-001	4.420401e-002	6.215597e-001	-2.403894e-001	6.215978e-001	-2.381389e-001	5.724710e-001	-4.265049e-001
8473000000	-7.126564e-001	5.482772e-002	6.184572e-001	-2.494179e-001	6.185277e-001	-2.471712e-001	5.661872e-001	-4.340155e-001
8475625000	-7.113509e-001	6.546300e-002	6.152335e-001	-2.584108e-001	6.153003e-001	-2.561871e-001	5.597876e-001	-4.414404e-001
8478250000	-7.098634e-001	7.609999e-002	6.118497e-001	-2.673277e-001	6.119380e-001	-2.651398e-001	5.533084e-001	-4.487349e-001
8480875000	-7.081923e-001	8.667783e-002	6.083492e-001	-2.761854e-001	6.084648e-001	-2.740262e-001	5.467928e-001	-4.559168e-001
8483500000	-7.063641e-001	9.727402e-002	6.047532e-001	-2.850315e-001	6.048427e-001	-2.828562e-001	5.401914e-001	-4.630249e-001
8486125000	-7.044081e-001	1.077804e-001	6.010189e-001	-2.937693e-001	6.010904e-001	-2.916528e-001	5.334921e-001	-4.699664e-001
8488750000	-7.022473e-001	1.182768e-001	5.971526e-001	-3.024858e-001	5.972283e-001	-3.003634e-001	5.267253e-001	-4.768143e-001
8491375000	-6.999677e-001	1.287015e-001	5.931807e-001	-3.111314e-001	5.932660e-001	-3.090471e-001	5.199303e-001	-4.836256e-001
8494000000	-6.975523e-001	1.391082e-001	5.891092e-001	-3.197072e-001	5.891727e-001	-3.176597e-001	5.130897e-001	-4.902827e-001
8496625000	-6.949646e-001	1.494606e-001	5.848918e-001	-3.282301e-001	5.849687e-001	-3.261777e-001	5.061385e-001	-4.968132e-001
8499250000	-6.922081e-001	1.597609e-001	5.805793e-001	-3.366680e-001	5.806048e-001	-3.346428e-001	4.991389e-001	-5.032247e-001
8501875000	-6.893293e-001	1.699946e-001	5.760811e-001	-3.450139e-001	5.761391e-001	-3.429222e-001	4.920910e-001	-5.095486e-001
8504500000	-6.862593e-001	1.802928e-001	5.715575e-001	-3.533391e-001	5.715460e-001	-3.513023e-001	4.849783e-001	-5.156990e-001
8507125000	-6.830293e-001	1.905861e-001	5.668804e-001	-3.615985e-001	5.669158e-001	-3.595222e-001	4.778846e-001	-5.217085e-001
8509750000	-6.796520e-001	2.006994e-001	5.620711e-001	-3.698239e-001	5.620585e-001	-3.676917e-001	4.705756e-001	-5.276898e-001
8512375000	-6.761082e-001	2.108086e-001	5.571883e-001	-3.779182e-001	5.571369e-001	-3.757955e-001	4.633388e-001	-5.334627e-001
8515000000	-6.723518e-001	2.208457e-001	5.522297e-001	-3.859703e-001	5.521724e-001	-3.838549e-001	4.561183e-001	-5.392014e-001
8517625000	-6.685393e-001	2.308231e-001	5.470566e-001	-3.939494e-001	5.470117e-001	-3.918160e-001	4.486809e-001	-5.448887e-001
8520250000	-6.645776e-001	2.407893e-001	5.418459e-001	-4.018597e-001	5.417656e-001	-3.997295e-001	4.412304e-001	-5.503347e-001
8522875000	-6.604346e-001	2.506905e-001	5.364363e-001	-4.096983e-001	5.364068e-001	-4.074724e-001	4.337684e-001	-5.557079e-001
8525500000	-6.561186e-001	2.605959e-001	5.309603e-001	-4.175168e-001	5.309697e-001	-4.151972e-001	4.261545e-001	-5.609291e-001
8528125000	-6.517351e-001	2.704071e-001	5.254379e-001	-4.252073e-001	5.254759e-001	-4.229094e-001	4.186590e-001	-5.660499e-001
8530750000	-6.470838e-001	2.801436e-001	5.197349e-001	-4.328299e-001	5.198775e-001	-4.304910e-001	4.110642e-001	-5.710029e-001
8533375000	-6.423791e-001	2.896761e-001	5.140060e-001	-4.402510e-001	5.142107e-001	-4.379361e-001	4.034641e-001	-5.758207e-001
8536000000	-6.374875e-001	2.992608e-001	5.081044e-001	-4.477164e-001	5.084105e-001	-4.453691e-001	3.958266e-001	-5.805834e-001
8538625000	-6.324589e-001	3.087994e-001	5.021538e-001	-4.551198e-001	5.025541e-001	-4.527290e-001	3.882047e-001	-5.851888e-001
8541250000	-6.272597e-001	3.181656e-001	4.960718e-001	-4.623717e-001	4.965357e-001	-4.599992e-001	3.804205e-001	-5.896600e-001
8543875000	-6.219226e-001	3.274431e-001	4.899517e-001	-4.696035e-001	4.905068e-001	-4.671713e-001	3.727833e-001	-5.940430e-001
8546500000	-6.165115e-001	3.367412e-001	4.836701e-001	-4.767108e-001	4.843546e-001	-4.743010e-001	3.650287e-001	-5.983000e-001
8549125000	-6.109304e-001	3.458946e-001	4.773718e-001	-4.837888e-001	4.780931e-001	-4.813616e-001	3.572094e-001	-6.024784e-001
8551750000	-6.051610e-001	3.549200e-001	4.709479e-001	-4.907330e-001	4.717345e-001	-4.883586e-001	3.493867e-001	-6.065265e-001
8554375000	-5.992505e-001	3.638869e-001	4.644064e-001	-4.975661e-001	4.652888e-001	-4.952709e-001	3.415163e-001	-6.104492e-001
8557000000	-5.932621e-001	3.727815e-001	4.577458e-001	-5.044504e-001	4.587027e-001	-5.020874e-001	3.335490e-001	-6.143521e-001
8559625000	-5.871384e-001	3.815017e-001	4.510442e-001	-5.111663e-001	4.521420e-001	-5.088345e-001	3.256648e-001	-6.180331e-001
8562250000	-5.808550e-001	3.901527e-001	4.442446e-001	-5.178162e-001	4.454250e-001	-5.154723e-001	3.177078e-001	-6.216727e-001
8564875000	-5.744980e-001	3.986665e-001	4.373454e-001	-5.243458e-001	4.386078e-001	-5.220864e-001	3.096668e-001	-6.251516e-001
8567500000	-5.679222e-001	4.071089e-001	4.303226e-001	-5.308145e-001	4.317273e-001	-5.286431e-001	3.016174e-001	-6.285543e-001
8570125000	-5.613145e-001	4.153965e-001	4.232257e-001	-5.371478e-001	4.246651e-001	-5.350873e-001	2.934540e-001	-6.318951e-001
8572750000	-5.545616e-001	4.236105e-001	4.160395e-001	-5.434468e-001	4.175763e-001	-5.415095e-001	2.852959e-001	-6.350601e-001
8575375000	-5.476695e-001	4.316494e-001	4.087517e-001	-5.496634e-001	4.103398e-001	-5.476855e-001	2.771064e-001	-6.380869e-001
8578000000	-5.407323e-001	4.396308e-001	4.014378e-001	-5.557329e-001	4.029808e-001	-5.538928e-001	2.688501e-001	-6.410103e-001
8580625000	-5.336804e-001	4.474367e-001	3.940289e-001	-5.616548e-001	3.956107e-001	-5.598478e-001	2.604790e-001	-6.437799e-001
8583250000	-5.264375e-001	4.551091e-001	3.864343e-001	-5.675873e-001	3.880911e-001	-5.658703e-001	2.522004e-001	-6.465628e-001
8585875000	-5.191615e-001	4.626408e-001	3.788251e-001	-5.733850e-001	3.805219e-001	-5.717530e-001	2.437681e-001	-6.491478e-001
8588500000	-5.117723e-001	4.700209e-001	3.711450e-001	-5.791194e-001	3.728083e-001	-5.774795e-001	2.353200e-001	-6.516647e-001
8591125000	-5.043055e-001	4.773254e-001	3.633657e-001	-5.847190e-001	3.650749e-001	-5.831338e-001	2.269717e-001	-6.540364e-001
8593750000	-4.967322e-001	4.843888e-001	3.555375e-001	-5.902086e-001	3.571684e-001	-5.887103e-001	2.184742e-001	-6.564354e-001
8596375000	-4.890894e-001	4.914060e-001	3.476051e-001	-5.956513e-001	3.492181e-001	-5.941579e-001	2.099773e-001	-6.585214e-001
8599000000	-4.813496e-001	4.981865e-001	3.395548e-001	-6.008595e-001	3.411502e-001	-5.994384e-001	2.013531e-001	-6.605395e-001
8601625000	-4.735088e-001	5.049611e-001	3.314493e-001	-6.060396e-001	3.330792e-001	-6.046595e-001	1.928553e-001	-6.624711e-001
8604250000	-4.656790e-001	5.114888e-001	3.232800e-001	-6.111333e-001	3.248232e-001	-6.097897e-001	1.842386e-001	-6.643177e-001
