!Agilent Technologies,E5071C,MY46631589,B.13.30
!Date: Sun May 30 22:21:31 2021
!Data & Calibration Information:
!Freq	S11:SOLT2(ON)	S21:SOLT2(ON)	S12:SOLT2(ON)	S22:SOLT2(ON)
!PortZ  Port1:50+j0    Port2:50+j0
!Above PortZ is port z conversion or system Z0 setting when saving the data.
!When reading, reference impedance value at option line is always used.
# Hz S MA R 50
8200000000	3.821644e-001	-4.164467e+000	8.839477e-001	8.676743e+001	8.840472e-001	8.686975e+001	3.740455e-001	-1.174781e+001
8202625000	3.817112e-001	-5.007395e+000	8.841336e-001	8.590308e+001	8.842207e-001	8.600743e+001	3.736096e-001	-1.261840e+001
8205250000	3.812599e-001	-5.852512e+000	8.843404e-001	8.503795e+001	8.843800e-001	8.514465e+001	3.732010e-001	-1.348796e+001
8207875000	3.808417e-001	-6.694225e+000	8.845013e-001	8.417536e+001	8.845558e-001	8.428306e+001	3.727815e-001	-1.436467e+001
8210500000	3.803896e-001	-7.537600e+000	8.846643e-001	8.331211e+001	8.846994e-001	8.341842e+001	3.723842e-001	-1.523929e+001
8213125000	3.799703e-001	-8.383068e+000	8.848298e-001	8.244915e+001	8.848706e-001	8.256098e+001	3.719981e-001	-1.610540e+001
8215750000	3.795580e-001	-9.226806e+000	8.849670e-001	8.158972e+001	8.850055e-001	8.170010e+001	3.716229e-001	-1.697902e+001
8218375000	3.791392e-001	-1.007315e+001	8.850949e-001	8.073212e+001	8.851553e-001	8.083990e+001	3.713107e-001	-1.784746e+001
8221000000	3.787415e-001	-1.091663e+001	8.852353e-001	7.987447e+001	8.852843e-001	7.998350e+001	3.709815e-001	-1.872313e+001
8223625000	3.783488e-001	-1.176542e+001	8.854035e-001	7.901414e+001	8.854638e-001	7.912336e+001	3.706768e-001	-1.959762e+001
8226250000	3.779488e-001	-1.260534e+001	8.855702e-001	7.815554e+001	8.856168e-001	7.826632e+001	3.703524e-001	-2.046831e+001
8228875000	3.775727e-001	-1.344859e+001	8.857329e-001	7.729647e+001	8.857966e-001	7.740906e+001	3.700671e-001	-2.134013e+001
8231500000	3.772136e-001	-1.429218e+001	8.858447e-001	7.643731e+001	8.859078e-001	7.654809e+001	3.697547e-001	-2.221328e+001
8234125000	3.768218e-001	-1.513928e+001	8.860052e-001	7.557959e+001	8.860674e-001	7.569150e+001	3.694943e-001	-2.308388e+001
8236750000	3.764743e-001	-1.598193e+001	8.861105e-001	7.472415e+001	8.861793e-001	7.483371e+001	3.692110e-001	-2.395112e+001
8239375000	3.761414e-001	-1.682084e+001	8.862320e-001	7.386642e+001	8.863190e-001	7.397767e+001	3.689569e-001	-2.482576e+001
8242000000	3.758187e-001	-1.766395e+001	8.863677e-001	7.300794e+001	8.864300e-001	7.312216e+001	3.687176e-001	-2.568959e+001
8244625000	3.755256e-001	-1.850118e+001	8.864584e-001	7.215445e+001	8.865143e-001	7.226668e+001	3.684643e-001	-2.656038e+001
8247250000	3.751861e-001	-1.934986e+001	8.865678e-001	7.129983e+001	8.866342e-001	7.141119e+001	3.682500e-001	-2.742856e+001
8249875000	3.748675e-001	-2.020379e+001	8.866607e-001	7.044720e+001	8.867576e-001	7.055612e+001	3.679828e-001	-2.829336e+001
8252500000	3.745553e-001	-2.104687e+001	8.867341e-001	6.959133e+001	8.868872e-001	6.970151e+001	3.677964e-001	-2.915950e+001
8255125000	3.742724e-001	-2.189301e+001	8.868475e-001	6.873861e+001	8.869900e-001	6.884861e+001	3.675788e-001	-3.001848e+001
8257750000	3.740043e-001	-2.273601e+001	8.869222e-001	6.788387e+001	8.870772e-001	6.799446e+001	3.673755e-001	-3.088005e+001
8260375000	3.737178e-001	-2.358039e+001	8.870091e-001	6.703216e+001	8.871771e-001	6.714360e+001	3.671660e-001	-3.173803e+001
8263000000	3.734798e-001	-2.441955e+001	8.871253e-001	6.618023e+001	8.872821e-001	6.628981e+001	3.669834e-001	-3.259349e+001
8265625000	3.732313e-001	-2.527281e+001	8.871824e-001	6.532712e+001	8.873732e-001	6.543709e+001	3.667863e-001	-3.344927e+001
8268250000	3.730050e-001	-2.612358e+001	8.872386e-001	6.447552e+001	8.874464e-001	6.458567e+001	3.666174e-001	-3.429588e+001
8270875000	3.727637e-001	-2.696852e+001	8.873070e-001	6.362593e+001	8.875465e-001	6.373440e+001	3.664502e-001	-3.514435e+001
8273500000	3.725493e-001	-2.781754e+001	8.873835e-001	6.277511e+001	8.876204e-001	6.288380e+001	3.662558e-001	-3.598931e+001
8276125000	3.723484e-001	-2.866142e+001	8.874863e-001	6.192442e+001	8.877103e-001	6.203518e+001	3.660918e-001	-3.683305e+001
8278750000	3.721975e-001	-2.950899e+001	8.875634e-001	6.107420e+001	8.878237e-001	6.118646e+001	3.659584e-001	-3.767133e+001
8281375000	3.719697e-001	-3.035879e+001	8.876584e-001	6.022623e+001	8.878873e-001	6.033718e+001	3.657722e-001	-3.850275e+001
8284000000	3.717757e-001	-3.121033e+001	8.877210e-001	5.937964e+001	8.879703e-001	5.949104e+001	3.656166e-001	-3.933719e+001
8286625000	3.715954e-001	-3.206165e+001	8.877969e-001	5.853481e+001	8.880529e-001	5.864515e+001	3.654276e-001	-4.016500e+001
8289250000	3.714060e-001	-3.291715e+001	8.878798e-001	5.769028e+001	8.881440e-001	5.779998e+001	3.652530e-001	-4.098671e+001
8291875000	3.712233e-001	-3.377297e+001	8.879522e-001	5.684461e+001	8.882247e-001	5.695366e+001	3.651067e-001	-4.180753e+001
8294500000	3.710276e-001	-3.463130e+001	8.879860e-001	5.600082e+001	8.882902e-001	5.610620e+001	3.649123e-001	-4.263044e+001
8297125000	3.708431e-001	-3.548702e+001	8.881113e-001	5.515764e+001	8.883874e-001	5.526238e+001	3.647249e-001	-4.344380e+001
8299750000	3.706784e-001	-3.634746e+001	8.882385e-001	5.431247e+001	8.885205e-001	5.441771e+001	3.645385e-001	-4.425516e+001
8302375000	3.704666e-001	-3.720738e+001	8.883188e-001	5.346983e+001	8.886225e-001	5.357374e+001	3.643814e-001	-4.506570e+001
8305000000	3.702402e-001	-3.807631e+001	8.883796e-001	5.262353e+001	8.887149e-001	5.272966e+001	3.641990e-001	-4.587496e+001
8307625000	3.700447e-001	-3.894642e+001	8.884617e-001	5.178257e+001	8.887809e-001	5.188729e+001	3.639674e-001	-4.668041e+001
8310250000	3.698104e-001	-3.981682e+001	8.885448e-001	5.094341e+001	8.888833e-001	5.104406e+001	3.637751e-001	-4.748283e+001
8312875000	3.695764e-001	-4.068558e+001	8.886751e-001	5.010243e+001	8.889706e-001	5.020381e+001	3.635471e-001	-4.828708e+001
8315500000	3.693223e-001	-4.155609e+001	8.887516e-001	4.926221e+001	8.890849e-001	4.936336e+001	3.633101e-001	-4.908452e+001
8318125000	3.690640e-001	-4.243078e+001	8.889008e-001	4.842508e+001	8.891834e-001	4.852325e+001	3.630827e-001	-4.987966e+001
8320750000	3.687756e-001	-4.330458e+001	8.890248e-001	4.759289e+001	8.892941e-001	4.768464e+001	3.628827e-001	-5.066801e+001
8323375000	3.684705e-001	-4.419617e+001	8.891372e-001	4.675951e+001	8.894070e-001	4.684479e+001	3.626198e-001	-5.145328e+001
8326000000	3.681230e-001	-4.507355e+001	8.892241e-001	4.592240e+001	8.894867e-001	4.600861e+001	3.623623e-001	-5.224364e+001
8328625000	3.677985e-001	-4.594913e+001	8.893711e-001	4.508434e+001	8.895661e-001	4.516938e+001	3.621061e-001	-5.303527e+001
8331250000	3.674829e-001	-4.682197e+001	8.895044e-001	4.424265e+001	8.896869e-001	4.433168e+001	3.618499e-001	-5.382964e+001
8333875000	3.671390e-001	-4.770193e+001	8.896552e-001	4.340472e+001	8.898119e-001	4.349248e+001	3.615538e-001	-5.461583e+001
8336500000	3.667607e-001	-4.857928e+001	8.897857e-001	4.256681e+001	8.899243e-001	4.265614e+001	3.612725e-001	-5.540648e+001
8339125000	3.663906e-001	-4.945980e+001	8.899049e-001	4.172858e+001	8.900253e-001	4.181869e+001	3.609871e-001	-5.618997e+001
8341750000	3.660053e-001	-5.033595e+001	8.900271e-001	4.089372e+001	8.901304e-001	4.098508e+001	3.606931e-001	-5.697739e+001
8344375000	3.656025e-001	-5.121504e+001	8.901437e-001	4.005938e+001	8.902466e-001	4.014829e+001	3.603884e-001	-5.775753e+001
8347000000	3.652367e-001	-5.208775e+001	8.902616e-001	3.922268e+001	8.903238e-001	3.932002e+001	3.600731e-001	-5.853618e+001
8349625000	3.648350e-001	-5.296918e+001	8.904030e-001	3.838678e+001	8.904521e-001	3.848573e+001	3.597750e-001	-5.932153e+001
8352250000	3.644091e-001	-5.385139e+001	8.905320e-001	3.755182e+001	8.905972e-001	3.764989e+001	3.594613e-001	-6.011008e+001
8354875000	3.639748e-001	-5.473460e+001	8.906769e-001	3.671552e+001	8.907146e-001	3.681490e+001	3.591316e-001	-6.089553e+001
8357500000	3.635389e-001	-5.561583e+001	8.907859e-001	3.588041e+001	8.908581e-001	3.598097e+001	3.588059e-001	-6.168238e+001
8360125000	3.630584e-001	-5.649953e+001	8.909215e-001	3.504770e+001	8.910095e-001	3.514715e+001	3.584919e-001	-6.247026e+001
8362750000	3.625732e-001	-5.738144e+001	8.910723e-001	3.421158e+001	8.911393e-001	3.431112e+001	3.581711e-001	-6.326340e+001
8365375000	3.620972e-001	-5.826109e+001	8.912196e-001	3.337665e+001	8.912679e-001	3.347451e+001	3.578276e-001	-6.405469e+001
8368000000	3.616149e-001	-5.914169e+001	8.913509e-001	3.254099e+001	8.914113e-001	3.264026e+001	3.574993e-001	-6.484570e+001
8370625000	3.611516e-001	-6.002048e+001	8.915068e-001	3.170730e+001	8.915158e-001	3.180348e+001	3.571467e-001	-6.563847e+001
8373250000	3.606424e-001	-6.089987e+001	8.916063e-001	3.087372e+001	8.916543e-001	3.096947e+001	3.568167e-001	-6.643231e+001
8375875000	3.601673e-001	-6.178454e+001	8.917268e-001	3.004307e+001	8.917590e-001	3.013488e+001	3.565023e-001	-6.722386e+001
8378500000	3.596753e-001	-6.265833e+001	8.918359e-001	2.921063e+001	8.918819e-001	2.930217e+001	3.561728e-001	-6.802458e+001
8381125000	3.591993e-001	-6.353330e+001	8.919060e-001	2.837472e+001	8.919781e-001	2.846842e+001	3.558251e-001	-6.882498e+001
8383750000	3.587428e-001	-6.440647e+001	8.920316e-001	2.754009e+001	8.921257e-001	2.763093e+001	3.555161e-001	-6.962374e+001
8386375000	3.583087e-001	-6.527155e+001	8.921634e-001	2.670317e+001	8.922077e-001	2.679862e+001	3.551421e-001	-7.043018e+001
8389000000	3.578699e-001	-6.614296e+001	8.922584e-001	2.586938e+001	8.923155e-001	2.596503e+001	3.548387e-001	-7.123223e+001
8391625000	3.574561e-001	-6.701249e+001	8.923592e-001	2.503759e+001	8.924226e-001	2.512914e+001	3.545018e-001	-7.204057e+001
8394250000	3.570661e-001	-6.787842e+001	8.924496e-001	2.420530e+001	8.925076e-001	2.429586e+001	3.541936e-001	-7.284792e+001
8396875000	3.566774e-001	-6.874225e+001	8.925594e-001	2.337063e+001	8.925927e-001	2.346376e+001	3.538725e-001	-7.365622e+001
8399500000	3.562976e-001	-6.960584e+001	8.926226e-001	2.253751e+001	8.926984e-001	2.263358e+001	3.535553e-001	-7.446956e+001
8402125000	3.559446e-001	-7.046117e+001	8.927072e-001	2.170312e+001	8.927582e-001	2.180072e+001	3.532835e-001	-7.528068e+001
8404750000	3.555971e-001	-7.131419e+001	8.928251e-001	2.086899e+001	8.928674e-001	2.096750e+001	3.530137e-001	-7.609833e+001
8407375000	3.552609e-001	-7.217236e+001	8.929036e-001	2.003540e+001	8.929410e-001	2.013531e+001	3.527385e-001	-7.691474e+001
8410000000	3.549598e-001	-7.302693e+001	8.929232e-001	1.920180e+001	8.930152e-001	1.930370e+001	3.524918e-001	-7.773440e+001
8412625000	3.546538e-001	-7.388369e+001	8.929882e-001	1.837077e+001	8.931191e-001	1.847320e+001	3.522659e-001	-7.855020e+001
8415250000	3.544012e-001	-7.474085e+001	8.930356e-001	1.754134e+001	8.932009e-001	1.764121e+001	3.520423e-001	-7.937125e+001
8417875000	3.541436e-001	-7.558848e+001	8.930690e-001	1.670887e+001	8.932579e-001	1.681062e+001	3.518382e-001	-8.019698e+001
8420500000	3.539258e-001	-7.643584e+001	8.931493e-001	1.587532e+001	8.933045e-001	1.597870e+001	3.516657e-001	-8.101969e+001
8423125000	3.537218e-001	-7.727942e+001	8.932021e-001	1.504482e+001	8.933804e-001	1.514755e+001	3.514945e-001	-8.184480e+001
8425750000	3.535472e-001	-7.812213e+001	8.932196e-001	1.421312e+001	8.934423e-001	1.431653e+001	3.513564e-001	-8.267141e+001
8428375000	3.533728e-001	-7.897708e+001	8.932438e-001	1.338225e+001	8.934688e-001	1.348667e+001	3.512280e-001	-8.349823e+001
8431000000	3.532548e-001	-7.982462e+001	8.932430e-001	1.255377e+001	8.935258e-001	1.265583e+001	3.511285e-001	-8.433187e+001
8433625000	3.531646e-001	-8.066934e+001	8.932330e-001	1.172473e+001	8.935452e-001	1.182403e+001	3.510547e-001	-8.516148e+001
8436250000	3.530665e-001	-8.150758e+001	8.932685e-001	1.089456e+001	8.935610e-001	1.099387e+001	3.509892e-001	-8.599409e+001
8438875000	3.529898e-001	-8.235027e+001	8.932567e-001	1.006199e+001	8.935660e-001	1.016243e+001	3.509408e-001	-8.682865e+001
8441500000	3.529160e-001	-8.319095e+001	8.932418e-001	9.232988e+000	8.935694e-001	9.332829e+000	3.509217e-001	-8.766274e+001
8444125000	3.529280e-001	-8.403820e+001	8.932423e-001	8.405107e+000	8.935399e-001	8.501589e+000	3.509143e-001	-8.849290e+001
8446750000	3.529118e-001	-8.487967e+001	8.932073e-001	7.578061e+000	8.935337e-001	7.673315e+000	3.509297e-001	-8.932876e+001
8449375000	3.529218e-001	-8.571916e+001	8.931803e-001	6.749736e+000	8.935255e-001	6.845121e+000	3.509601e-001	-9.016177e+001
8452000000	3.529342e-001	-8.656106e+001	8.931321e-001	5.921900e+000	8.934488e-001	6.016386e+000	3.510191e-001	-9.099741e+001
8454625000	3.529925e-001	-8.740349e+001	8.931092e-001	5.092615e+000	8.934605e-001	5.188263e+000	3.510960e-001	-9.183006e+001
8457250000	3.530441e-001	-8.823624e+001	8.930773e-001	4.268033e+000	8.934064e-001	4.361866e+000	3.511897e-001	-9.266352e+001
8459875000	3.531101e-001	-8.907216e+001	8.930254e-001	3.441425e+000	8.933539e-001	3.534856e+000	3.513143e-001	-9.350018e+001
8462500000	3.531937e-001	-8.990794e+001	8.929812e-001	2.617832e+000	8.932997e-001	2.709287e+000	3.514379e-001	-9.433045e+001
8465125000	3.532747e-001	-9.074438e+001	8.929112e-001	1.794280e+000	8.932310e-001	1.885207e+000	3.515532e-001	-9.516259e+001
8467750000	3.533939e-001	-9.157574e+001	8.928672e-001	9.720289e-001	8.932026e-001	1.061275e+000	3.517217e-001	-9.599120e+001
8470375000	3.534992e-001	-9.240872e+001	8.928236e-001	1.495109e-001	8.931285e-001	2.377111e-001	3.518933e-001	-9.682076e+001
8473000000	3.536421e-001	-9.324025e+001	8.927787e-001	-6.729529e-001	8.930453e-001	-5.857384e-001	3.520572e-001	-9.764920e+001
8475625000	3.537750e-001	-9.407280e+001	8.927236e-001	-1.493938e+000	8.929921e-001	-1.408891e+000	3.522602e-001	-9.847496e+001
8478250000	3.539201e-001	-9.489930e+001	8.926543e-001	-2.315018e+000	8.929147e-001	-2.230001e+000	3.524613e-001	-9.929890e+001
8480875000	3.540360e-001	-9.572909e+001	8.925611e-001	-3.136545e+000	8.928305e-001	-3.051094e+000	3.526821e-001	-1.001258e+002
8483500000	3.541763e-001	-9.655713e+001	8.924870e-001	-3.955644e+000	8.927285e-001	-3.870615e+000	3.528862e-001	-1.009486e+002
8486125000	3.543281e-001	-9.738004e+001	8.924150e-001	-4.773152e+000	8.926478e-001	-4.689668e+000	3.531197e-001	-1.017697e+002
8488750000	3.544753e-001	-9.820374e+001	8.923527e-001	-5.592782e+000	8.925930e-001	-5.507597e+000	3.533493e-001	-1.025869e+002
8491375000	3.546071e-001	-9.902598e+001	8.922604e-001	-6.411385e+000	8.925026e-001	-6.325395e+000	3.535866e-001	-1.034047e+002
8494000000	3.547594e-001	-9.984732e+001	8.922002e-001	-7.230060e+000	8.924219e-001	-7.142632e+000	3.538294e-001	-1.042175e+002
8496625000	3.549121e-001	-1.006650e+002	8.921216e-001	-8.045018e+000	8.923403e-001	-7.959386e+000	3.540636e-001	-1.050314e+002
8499250000	3.550829e-001	-1.014864e+002	8.920452e-001	-8.858243e+000	8.922545e-001	-8.771434e+000	3.542789e-001	-1.058374e+002
8501875000	3.552350e-001	-1.023060e+002	8.919384e-001	-9.670219e+000	8.921108e-001	-9.586672e+000	3.544650e-001	-1.066395e+002
8504500000	3.554271e-001	-1.031318e+002	8.918841e-001	-1.047956e+001	8.920106e-001	-1.039938e+001	3.546933e-001	-1.074491e+002
8507125000	3.555410e-001	-1.039556e+002	8.918160e-001	-1.129193e+001	8.919529e-001	-1.121663e+001	3.549020e-001	-1.082477e+002
8509750000	3.556576e-001	-1.047660e+002	8.917312e-001	-1.210111e+001	8.918933e-001	-1.202351e+001	3.551364e-001	-1.090492e+002
8512375000	3.558732e-001	-1.055862e+002	8.916668e-001	-1.291542e+001	8.918321e-001	-1.283305e+001	3.553547e-001	-1.098451e+002
8515000000	3.559609e-001	-1.064017e+002	8.915894e-001	-1.372335e+001	8.918193e-001	-1.364804e+001	3.555667e-001	-1.106443e+002
8517625000	3.561320e-001	-1.072332e+002	8.915458e-001	-1.453442e+001	8.917768e-001	-1.445603e+001	3.557654e-001	-1.114382e+002
8520250000	3.562795e-001	-1.080515e+002	8.914902e-001	-1.533950e+001	8.916976e-001	-1.526207e+001	3.558920e-001	-1.122352e+002
8522875000	3.563922e-001	-1.088777e+002	8.914646e-001	-1.615019e+001	8.916281e-001	-1.607130e+001	3.560661e-001	-1.130213e+002
8525500000	3.565159e-001	-1.097003e+002	8.914443e-001	-1.695598e+001	8.916234e-001	-1.688003e+001	3.562380e-001	-1.138079e+002
8528125000	3.566334e-001	-1.105214e+002	8.914520e-001	-1.776294e+001	8.915883e-001	-1.768840e+001	3.564344e-001	-1.146047e+002
8530750000	3.566717e-001	-1.113481e+002	8.914425e-001	-1.856456e+001	8.915409e-001	-1.849180e+001	3.565646e-001	-1.153883e+002
8533375000	3.567347e-001	-1.121740e+002	8.913564e-001	-1.937355e+001	8.915239e-001	-1.929960e+001	3.566823e-001	-1.161735e+002
8536000000	3.568344e-001	-1.129997e+002	8.914084e-001	-2.017802e+001	8.915005e-001	-2.010307e+001	3.568164e-001	-1.169599e+002
8538625000	3.569017e-001	-1.138255e+002	8.914295e-001	-2.098497e+001	8.915342e-001	-2.091207e+001	3.569130e-001	-1.177522e+002
8541250000	3.568872e-001	-1.146500e+002	8.913806e-001	-2.178956e+001	8.914666e-001	-2.171375e+001	3.569994e-001	-1.185302e+002
8543875000	3.569310e-001	-1.154720e+002	8.914275e-001	-2.259932e+001	8.915280e-001	-2.251623e+001	3.570682e-001	-1.193179e+002
8546500000	3.569365e-001	-1.162952e+002	8.914366e-001	-2.340109e+001	8.915141e-001	-2.332263e+001	3.571734e-001	-1.200933e+002
8549125000	3.569510e-001	-1.171316e+002	8.914240e-001	-2.420309e+001	8.914796e-001	-2.412392e+001	3.571439e-001	-1.208784e+002
8551750000	3.569126e-001	-1.179512e+002	8.914554e-001	-2.501096e+001	8.914825e-001	-2.492727e+001	3.571938e-001	-1.216614e+002
8554375000	3.568859e-001	-1.187830e+002	8.914422e-001	-2.581100e+001	8.915227e-001	-2.572580e+001	3.572394e-001	-1.224309e+002
8557000000	3.568498e-001	-1.196143e+002	8.914951e-001	-2.661642e+001	8.915435e-001	-2.652938e+001	3.572171e-001	-1.232173e+002
8559625000	3.568244e-001	-1.204407e+002	8.915341e-001	-2.742163e+001	8.915242e-001	-2.733017e+001	3.571970e-001	-1.240013e+002
8562250000	3.567700e-001	-1.212735e+002	8.916348e-001	-2.821991e+001	8.916168e-001	-2.813057e+001	3.572172e-001	-1.247831e+002
8564875000	3.567269e-001	-1.220984e+002	8.916731e-001	-2.902338e+001	8.915933e-001	-2.893380e+001	3.571195e-001	-1.255649e+002
8567500000	3.566165e-001	-1.229349e+002	8.917217e-001	-2.982803e+001	8.916946e-001	-2.973865e+001	3.570319e-001	-1.263523e+002
8570125000	3.565274e-001	-1.237661e+002	8.917277e-001	-3.062997e+001	8.917255e-001	-3.053770e+001	3.569848e-001	-1.271355e+002
8572750000	3.564053e-001	-1.246021e+002	8.917881e-001	-3.143579e+001	8.918429e-001	-3.134470e+001	3.568717e-001	-1.279194e+002
8575375000	3.562541e-001	-1.254292e+002	8.917895e-001	-3.223459e+001	8.918328e-001	-3.214362e+001	3.567968e-001	-1.286973e+002
8578000000	3.561563e-001	-1.262782e+002	8.918608e-001	-3.303601e+001	8.918770e-001	-3.294746e+001	3.566569e-001	-1.294813e+002
8580625000	3.560125e-001	-1.271054e+002	8.919463e-001	-3.383674e+001	8.919163e-001	-3.374766e+001	3.565670e-001	-1.302711e+002
8583250000	3.558798e-001	-1.279341e+002	8.920335e-001	-3.463689e+001	8.919226e-001	-3.455036e+001	3.563880e-001	-1.310592e+002
8585875000	3.556564e-001	-1.287708e+002	8.919987e-001	-3.543939e+001	8.920108e-001	-3.535351e+001	3.562728e-001	-1.318448e+002
8588500000	3.555382e-001	-1.296047e+002	8.920212e-001	-3.623770e+001	8.920200e-001	-3.615310e+001	3.561120e-001	-1.326387e+002
8591125000	3.553618e-001	-1.304466e+002	8.920728e-001	-3.703693e+001	8.920299e-001	-3.695419e+001	3.559111e-001	-1.334246e+002
8593750000	3.552075e-001	-1.312701e+002	8.921578e-001	-3.783667e+001	8.921238e-001	-3.775268e+001	3.557622e-001	-1.342145e+002
8596375000	3.550564e-001	-1.321089e+002	8.921760e-001	-3.863364e+001	8.921845e-001	-3.855821e+001	3.555871e-001	-1.350052e+002
8599000000	3.548118e-001	-1.329387e+002	8.921987e-001	-3.943569e+001	8.922338e-001	-3.935561e+001	3.554098e-001	-1.358007e+002
8601625000	3.546175e-001	-1.337675e+002	8.922777e-001	-4.023197e+001	8.922680e-001	-4.015913e+001	3.552503e-001	-1.365959e+002
8604250000	3.544449e-001	-1.346020e+002	8.923404e-001	-4.103461e+001	8.922464e-001	-4.095841e+001	3.550264e-001	-1.373947e+002
8606875000	3.543018e-001	-1.354232e+002	8.923568e-001	-4.184010e+001	8.923067e-001	-4.176047e+001	3.548534e-001	-1.381915e+002
